;$FILEVERSION=2.0
;$STARTTIME=44957.548038206
;$COLUMNS=N,O,T,I,d,l,D
;
;   C:\example.trc
;   Start time: 31/1/2023 13:09:10.501.0
;   Generated by PCAN-View v4.2.1.533
;-------------------------------------------------------------------------------
;   Connection                 Bit rate
;   PCANLight_USB_16@pcan_usb  Nominal 500 kBit/s, Data 500 kBit/s
;-------------------------------------------------------------------------------
;   Message   Time    Type ID     Rx/Tx
;   Number    Offset  |    [hex]  |  Data Length
;   |         [ms]    |    |      |  |  Data [hex] ...
;   |         |       |    |      |  |  |
;---+-- ------+------ +- --+----- +- +- +- +- -- -- -- -- -- -- --
      1        10.153 DT 00C83C44 Rx 1  00 
      2        19.392 DT 00788244 Rx 2  00 00 
      3        20.368 DT 00788245 Rx 1  00 
      4        21.434 DT 00788246 Rx 5  99 1F 99 AE B9 
      5        29.442 DT 00283C44 Rx 1  00 
      6        29.620 DT 002800AA Rx 2  7F 01 
      7        29.794 DT 00283C45 Rx 2  01 00 
      8        46.753 DT 008200AA Rx 3  30 02 00 
      9        60.209 DT 00C800AA Rx 2  DA 01 
     10        60.365 DT 00C83C44 Rx 1  00 
     11        68.419 DT 007800AA Rx 2  7D 01 
     12        69.426 DT 00788244 Rx 2  00 00 
     13        70.400 DT 00788245 Rx 1  00 
     14        71.465 DT 00788246 Rx 5  99 1F 99 AE B9 
     15        79.450 DT 00283C44 Rx 1  00 
     16       110.233 DT 00C83C44 Rx 1  00 
     17       119.455 DT 00788244 Rx 2  00 00 
     18       120.435 DT 00788245 Rx 1  00 
     19       121.497 DT 00788246 Rx 5  99 1F 99 AE B9 
     20       129.459 DT 00283C44 Rx 1  00 
     21       129.640 DT 002800AA Rx 2  80 01 
     22       129.814 DT 00283C45 Rx 2  01 00 
     23       130.042 DT 00283C46 Rx 5  64 15 00 00 08 
     24       146.738 DT 008200AA Rx 3  31 02 00 
     25       160.302 DT 00C800AA Rx 2  DB 01 
     26       160.458 DT 00C83C44 Rx 1  00 
     27       168.485 DT 007800AA Rx 2  7E 01 
     28       169.487 DT 00788244 Rx 2  00 00 
     29       170.461 DT 00788245 Rx 1  00 
     30       171.528 DT 00788246 Rx 5  99 1F 99 AE B9 
     31       179.479 DT 00283C44 Rx 1  00 
     32       210.340 DT 00C83C44 Rx 1  00 
     33       219.518 DT 00788244 Rx 2  00 00 
     34       220.498 DT 00788245 Rx 1  00 
     35       221.560 DT 00788246 Rx 5  99 1F 99 AE B9 
     36       229.498 DT 00283C44 Rx 1  00 
     37       229.676 DT 002800AA Rx 2  81 01 
     38       229.850 DT 00283C45 Rx 2  01 00 
     39       247.218 DT 008200AA Rx 3  32 02 00 
     40       260.429 DT 00C800AA Rx 2  DC 01 
     41       260.585 DT 00C83C44 Rx 1  00 
     42       268.557 DT 007800AA Rx 2  7F 01 
     43       269.563 DT 00788244 Rx 2  00 00 
     44       270.541 DT 00788245 Rx 1  00 
     45       271.604 DT 00788246 Rx 5  99 1F 99 AE B9 
     46       279.510 DT 00283C44 Rx 1  00 
     47       310.472 DT 00C83C44 Rx 1  00 
     48       319.585 DT 00788244 Rx 2  00 00 
     49       320.567 DT 00788245 Rx 1  00 
     50       321.633 DT 00788246 Rx 5  99 1F 99 AE B9 
     51       329.527 DT 00283C44 Rx 1  00 
     52       329.705 DT 002800AA Rx 2  82 01 
     53       329.879 DT 00283C45 Rx 2  01 00 
     54       347.203 DT 008200AA Rx 3  33 02 00 
     55       360.559 DT 00C800AA Rx 2  DD 01 
     56       360.715 DT 00C83C44 Rx 1  00 
     57       368.691 DT 007800AA Rx 2  80 01 
     58       369.628 DT 00788244 Rx 2  00 00 
     59       370.600 DT 00788245 Rx 1  00 
     60       371.663 DT 00788246 Rx 5  99 1F 99 AE B9 
     61       379.550 DT 00283C44 Rx 1  00 
     62       410.595 DT 00C83C44 Rx 1  00 
     63       419.658 DT 00788244 Rx 2  00 00 
     64       420.632 DT 00788245 Rx 1  00 
     65       421.698 DT 00788246 Rx 5  99 1F 99 AE B9 
     66       429.570 DT 00283C44 Rx 1  00 
     67       429.748 DT 002800AA Rx 2  83 01 
     68       429.922 DT 00283C45 Rx 2  01 00 
     69       447.184 DT 008200AA Rx 3  34 02 00 
     70       460.664 DT 00C800AA Rx 2  DE 01 
     71       460.820 DT 00C83C44 Rx 1  00 
     72       468.691 DT 007800AA Rx 2  81 01 
     73       469.695 DT 00788244 Rx 2  00 00 
     74       470.673 DT 00788245 Rx 1  00 
     75       471.740 DT 00788246 Rx 5  99 1F 99 AE B9 
     76       479.597 DT 00283C44 Rx 1  00 
     77       510.688 DT 00C83C44 Rx 1  00 
     78       519.729 DT 00788244 Rx 2  00 00 
     79       520.705 DT 00788245 Rx 1  00 
     80       521.775 DT 00788246 Rx 5  99 1F 99 AE B9 
     81       529.607 DT 00283C44 Rx 1  00 
     82       529.785 DT 002800AA Rx 2  84 01 
     83       529.959 DT 00283C45 Rx 2  01 00 
     84       547.165 DT 008200AA Rx 3  35 02 00 
     85       560.760 DT 00C800AA Rx 2  DF 01 
     86       560.917 DT 00C83C44 Rx 1  00 
     87       568.770 DT 007800AA Rx 2  82 01 
     88       569.780 DT 00788244 Rx 2  00 00 
     89       570.752 DT 00788245 Rx 1  00 
     90       571.817 DT 00788246 Rx 5  99 1F 99 AE B9 
     91       579.630 DT 00283C44 Rx 1  00 
     92       610.797 DT 00C83C44 Rx 1  00 
     93       619.814 DT 00788244 Rx 2  00 00 
     94       620.790 DT 00788245 Rx 1  00 
     95       621.858 DT 00788246 Rx 5  99 1F 99 AE B9 
     96       629.644 DT 00283C44 Rx 1  00 
     97       629.820 DT 002800AA Rx 2  85 01 
     98       629.994 DT 00283C45 Rx 2  01 00 
     99       630.223 DT 00283C46 Rx 5  64 15 00 00 08 
    100       647.171 DT 008200AA Rx 3  36 02 00 
    101       660.865 DT 00C800AA Rx 2  E0 01 
    102       661.022 DT 00C83C44 Rx 1  00 
    103       669.841 DT 007800AA Rx 2  83 01 
    104       670.847 DT 00788244 Rx 2  00 00 
    105       671.826 DT 00788245 Rx 1  00 
    106       672.888 DT 00788246 Rx 5  99 1F 99 AE B9 
    107       679.663 DT 00283C44 Rx 1  00 
    108       710.886 DT 00C83C44 Rx 1  00 
    109       720.895 DT 00788244 Rx 2  00 00 
    110       721.873 DT 00788245 Rx 1  00 
    111       722.939 DT 00788246 Rx 5  99 1F 99 AE B9 
    112       729.673 DT 00283C44 Rx 1  00 
    113       729.849 DT 002800AA Rx 2  86 01 
    114       730.023 DT 00283C45 Rx 2  01 00 
    115       747.131 DT 008200AA Rx 3  37 02 00 
    116       760.954 DT 00C800AA Rx 2  E1 01 
    117       761.110 DT 00C83C44 Rx 1  00 
    118       769.927 DT 007800AA Rx 2  84 01 
    119       770.934 DT 00788244 Rx 2  00 00 
    120       771.913 DT 00788245 Rx 1  00 
    121       772.979 DT 00788246 Rx 5  99 1F 99 AE B9 
    122       779.686 DT 00283C44 Rx 1  00 
    123       810.990 DT 00C83C44 Rx 1  00 
    124       820.969 DT 00788244 Rx 2  00 00 
    125       821.955 DT 00788245 Rx 1  00 
    126       823.021 DT 00788246 Rx 5  99 1F 99 AE B9 
    127       829.697 DT 00283C44 Rx 1  00 
    128       829.873 DT 002800AA Rx 2  87 01 
    129       830.047 DT 00283C45 Rx 2  01 00 
    130       847.115 DT 008200AA Rx 3  38 02 00 
    131       861.048 DT 00C800AA Rx 2  E2 01 
    132       861.205 DT 00C83C44 Rx 1  00 
    133       870.006 DT 007800AA Rx 2  85 01 
    134       871.014 DT 00788244 Rx 2  00 00 
    135       871.987 DT 00788245 Rx 1  00 
    136       873.055 DT 00788246 Rx 5  99 1F 99 AE B9 
    137       879.708 DT 00283C44 Rx 1  00 
    138       911.067 DT 00C83C44 Rx 1  00 
    139       921.052 DT 00788244 Rx 2  00 00 
    140       922.020 DT 00788245 Rx 1  00 
    141       923.090 DT 00788246 Rx 5  99 1F 99 AE B9 
    142       929.748 DT 00283C44 Rx 1  00 
    143       929.890 DT 002800AA Rx 2  88 01 
    144       930.064 DT 00283C45 Rx 2  01 00 
    145       947.096 DT 008200AA Rx 3  39 02 00 
    146       961.131 DT 00C800AA Rx 2  E3 01 
    147       961.287 DT 00C83C44 Rx 1  00 
    148       970.075 DT 007800AA Rx 2  86 01 
    149       971.085 DT 00788244 Rx 2  00 00 
    150       972.058 DT 00788245 Rx 1  00 
    151       973.124 DT 00788246 Rx 5  99 1F 99 AE B9 
    152       979.733 DT 00283C44 Rx 1  00 
    153      1011.160 DT 00C83C44 Rx 1  00 
    154      1021.114 DT 00788244 Rx 2  00 00 
    155      1022.092 DT 00788245 Rx 1  00 
    156      1023.156 DT 00788246 Rx 5  99 1F 99 AE B9 
    157      1029.745 DT 00283C44 Rx 1  00 
    158      1029.923 DT 002800AA Rx 2  89 01 
    159      1030.097 DT 00283C45 Rx 2  01 00 
    160      1047.068 DT 008200AA Rx 3  3A 02 00 
    161      1061.218 DT 00C800AA Rx 2  E4 01 
    162      1061.374 DT 00C83C44 Rx 1  00 
    163      1070.135 DT 007800AA Rx 2  87 01 
    164      1071.143 DT 00788244 Rx 2  00 00 
    165      1072.120 DT 00788245 Rx 1  00 
    166      1073.190 DT 00788246 Rx 5  99 1F 99 AE B9 
    167      1079.747 DT 00283C44 Rx 1  00 
    168      1111.246 DT 00C83C44 Rx 1  00 
    169      1121.180 DT 00788244 Rx 2  00 00 
    170      1122.201 DT 00788245 Rx 1  00 
    171      1123.220 DT 00788246 Rx 5  99 1F 99 AE B9 
    172      1129.757 DT 00283C44 Rx 1  00 
    173      1129.933 DT 002800AA Rx 2  8A 01 
    174      1130.113 DT 00283C45 Rx 2  01 00 
    175      1130.396 DT 00283C46 Rx 5  64 15 00 00 08 
    176      1147.049 DT 008200AA Rx 3  3B 02 00 
    177      1161.323 DT 00C800AA Rx 2  E5 01 
    178      1161.479 DT 00C83C44 Rx 1  00 
    179      1170.222 DT 007800AA Rx 2  88 01 
    180      1171.224 DT 00788244 Rx 2  00 00 
    181      1172.197 DT 00788245 Rx 1  00 
    182      1173.265 DT 00788246 Rx 5  99 1F 99 AE B9 
    183      1179.766 DT 00283C44 Rx 1  00 
    184      1211.361 DT 00C83C44 Rx 1  00 
    185      1221.253 DT 00788244 Rx 2  00 00 
    186      1222.235 DT 00788245 Rx 1  00 
    187      1223.301 DT 00788246 Rx 5  99 1F 99 AE B9 
    188      1229.780 DT 00283C44 Rx 1  00 
    189      1229.955 DT 002800AA Rx 2  8B 01 
    190      1230.129 DT 00283C45 Rx 2  01 00 
    191      1247.531 DT 008200AA Rx 3  3C 02 00 
    192      1261.441 DT 00C800AA Rx 2  E6 01 
    193      1261.649 DT 00C83C44 Rx 1  00 
    194      1270.288 DT 007800AA Rx 2  89 01 
    195      1271.296 DT 00788244 Rx 2  00 00 
    196      1272.275 DT 00788245 Rx 1  00 
    197      1273.337 DT 00788246 Rx 5  99 1F 99 AE B9 
    198      1279.802 DT 00283C44 Rx 1  00 
    199      1311.477 DT 00C83C44 Rx 1  00 
    200      1321.336 DT 00788244 Rx 2  00 00 
    201      1322.312 DT 00788245 Rx 1  00 
    202      1323.380 DT 00788246 Rx 5  99 1F 99 AE B9 
    203      1329.823 DT 00283C44 Rx 1  00 
    204      1329.998 DT 002800AA Rx 2  8C 01 
    205      1330.172 DT 00283C45 Rx 2  01 00 
    206      1347.518 DT 008200AA Rx 3  3D 02 00 
    207      1361.546 DT 00C800AA Rx 2  E7 01 
    208      1361.702 DT 00C83C44 Rx 1  00 
    209      1370.367 DT 007800AA Rx 2  8A 01 
    210      1371.377 DT 00788244 Rx 2  00 00 
    211      1372.354 DT 00788245 Rx 1  00 
    212      1373.422 DT 00788246 Rx 5  99 1F 99 AE B9 
    213      1379.839 DT 00283C44 Rx 1  00 
    214      1411.586 DT 00C83C44 Rx 1  00 
    215      1421.417 DT 00788244 Rx 2  00 00 
    216      1422.399 DT 00788245 Rx 1  00 
    217      1423.463 DT 00788246 Rx 5  99 1F 99 AE B9 
    218      1429.862 DT 00283C44 Rx 1  00 
    219      1430.037 DT 002800AA Rx 2  8D 01 
    220      1430.211 DT 00283C45 Rx 2  01 00 
    221      1447.499 DT 008200AA Rx 3  3E 02 00 
    222      1461.660 DT 00C800AA Rx 2  E8 01 
    223      1461.817 DT 00C83C44 Rx 1  00 
    224      1470.454 DT 007800AA Rx 2  8B 01 
    225      1471.466 DT 00788244 Rx 2  00 00 
    226      1472.437 DT 00788245 Rx 1  00 
    227      1473.505 DT 00788246 Rx 5  99 1F 99 AE B9 
    228      1479.874 DT 00283C44 Rx 1  00 
    229      1511.685 DT 00C83C44 Rx 1  00 
    230      1521.494 DT 00788244 Rx 2  00 00 
    231      1522.466 DT 00788245 Rx 1  00 
    232      1523.547 DT 00788246 Rx 5  99 1F 99 AE B9 
    233      1529.885 DT 00283C44 Rx 1  00 
    234      1530.060 DT 002800AA Rx 2  8E 01 
    235      1530.234 DT 00283C45 Rx 2  01 00 
    236      1547.486 DT 008200AA Rx 3  3F 02 00 
    237      1561.765 DT 00C800AA Rx 2  E9 01 
    238      1561.921 DT 00C83C44 Rx 1  00 
    239      1570.526 DT 007800AA Rx 2  8C 01 
    240      1571.534 DT 00788244 Rx 2  00 00 
    241      1572.508 DT 00788245 Rx 1  00 
    242      1573.642 DT 00788246 Rx 5  99 1F 99 AE B9 
    243      1579.967 DT 00283C44 Rx 1  00 
    244      1611.794 DT 00C83C44 Rx 1  00 
    245      1621.554 DT 00788244 Rx 2  00 00 
    246      1622.532 DT 00788245 Rx 1  00 
    247      1623.600 DT 00788246 Rx 5  99 1F 99 AE B9 
    248      1630.019 DT 00283C44 Rx 1  00 
    249      1630.211 DT 002800AA Rx 2  8F 01 
    250      1630.360 DT 00283C45 Rx 2  01 00 
    251      1630.557 DT 00283C46 Rx 5  64 15 00 00 08 
    252      1647.469 DT 008200AA Rx 3  40 02 00 
    253      1661.872 DT 00C800AA Rx 2  EA 01 
    254      1662.028 DT 00C83C44 Rx 1  00 
    255      1671.589 DT 007800AA Rx 2  8D 01 
    256      1672.593 DT 00788244 Rx 2  00 00 
    257      1673.575 DT 00788245 Rx 1  00 
    258      1674.635 DT 00788246 Rx 5  99 1F 99 AE B9 
    259      1679.992 DT 00283C44 Rx 1  00 
    260      1711.921 DT 00C83C44 Rx 1  00 
    261      1722.623 DT 00788244 Rx 2  00 00 
    262      1723.603 DT 00788245 Rx 1  00 
    263      1724.671 DT 00788246 Rx 5  99 1F 99 AE B9 
    264      1730.008 DT 00283C44 Rx 1  00 
    265      1730.188 DT 002800AA Rx 2  90 01 
    266      1730.362 DT 00283C45 Rx 2  01 00 
    267      1747.448 DT 008200AA Rx 3  41 02 00 
    268      1761.975 DT 00C800AA Rx 2  EB 01 
    269      1762.131 DT 00C83C44 Rx 1  00 
    270      1771.661 DT 007800AA Rx 2  8E 01 
    271      1772.664 DT 00788244 Rx 2  00 00 
    272      1773.644 DT 00788245 Rx 1  00 
    273      1774.710 DT 00788246 Rx 5  99 1F 99 AE B9 
    274      1780.033 DT 00283C44 Rx 1  00 
    275      1812.014 DT 00C83C44 Rx 1  00 
    276      1822.700 DT 00788244 Rx 2  00 00 
    277      1823.682 DT 00788245 Rx 1  00 
    278      1824.748 DT 00788246 Rx 5  99 1F 99 AE B9 
    279      1830.057 DT 00283C44 Rx 1  00 
    280      1830.232 DT 002800AA Rx 2  91 01 
    281      1830.406 DT 00283C45 Rx 2  01 00 
    282      1847.430 DT 008200AA Rx 3  42 02 00 
    283      1862.081 DT 00C800AA Rx 2  EC 01 
    284      1862.238 DT 00C83C44 Rx 1  00 
    285      1871.733 DT 007800AA Rx 2  8F 01 
    286      1872.732 DT 00788244 Rx 2  00 00 
    287      1873.712 DT 00788245 Rx 1  00 
    288      1874.778 DT 00788246 Rx 5  99 1F 99 AE B9 
    289      1880.067 DT 00283C44 Rx 1  00 
    290      1912.110 DT 00C83C44 Rx 1  00 
    291      1922.765 DT 00788244 Rx 2  00 00 
    292      1923.753 DT 00788245 Rx 1  00 
    293      1924.865 DT 00788246 Rx 5  99 1F 99 AE B9 
    294      1930.086 DT 00283C44 Rx 1  00 
    295      1930.263 DT 002800AA Rx 2  92 01 
    296      1930.437 DT 00283C45 Rx 2  01 00 
    297      1947.413 DT 008200AA Rx 3  43 02 00 
    298      1962.178 DT 00C800AA Rx 2  ED 01 
    299      1962.334 DT 00C83C44 Rx 1  00 
    300      1971.816 DT 007800AA Rx 2  90 01 
    301      1972.815 DT 00788244 Rx 2  00 00 
    302      1973.797 DT 00788245 Rx 1  00 
    303      1974.865 DT 00788246 Rx 5  99 1F 99 AE B9 
    304      1980.108 DT 00283C44 Rx 1  00 
    305      2012.209 DT 00C83C44 Rx 1  00 
    306      2022.858 DT 00788244 Rx 2  00 00 
    307      2023.838 DT 00788245 Rx 1  00 
    308      2024.912 DT 00788246 Rx 5  99 1F 99 AE B9 
    309      2030.133 DT 00283C44 Rx 1  00 
    310      2030.312 DT 002800AA Rx 2  93 01 
    311      2030.486 DT 00283C45 Rx 2  01 00 
    312      2047.379 DT 008200AA Rx 3  44 02 00 
    313      2062.267 DT 00C800AA Rx 2  EE 01 
    314      2062.423 DT 00C83C44 Rx 1  00 
    315      2071.886 DT 007800AA Rx 2  91 01 
    316      2072.891 DT 00788244 Rx 2  00 00 
    317      2073.861 DT 00788245 Rx 1  00 
    318      2074.933 DT 00788246 Rx 5  99 1F 99 AE B9 
    319      2080.134 DT 00283C44 Rx 1  00 
    320      2112.285 DT 00C83C44 Rx 1  00 
    321      2122.918 DT 00788244 Rx 2  00 00 
    322      2123.892 DT 00788245 Rx 1  00 
    323      2124.962 DT 00788246 Rx 5  99 1F 99 AE B9 
    324      2130.157 DT 00283C44 Rx 1  00 
    325      2130.333 DT 002800AA Rx 2  94 01 
    326      2130.507 DT 00283C45 Rx 2  01 00 
    327      2130.735 DT 00283C46 Rx 5  64 15 00 00 08 
    328      2147.366 DT 008200AA Rx 3  45 02 00 
    329      2162.385 DT 00C800AA Rx 2  EF 01 
    330      2162.605 DT 00C83C44 Rx 1  00 
    331      2171.949 DT 007800AA Rx 2  92 01 
    332      2172.950 DT 00788244 Rx 2  00 00 
    333      2173.926 DT 00788245 Rx 1  00 
    334      2174.992 DT 00788246 Rx 5  99 1F 99 AE B9 
    335      2180.173 DT 00283C44 Rx 1  00 
    336      2212.374 DT 00C83C44 Rx 1  00 
    337      2222.984 DT 00788244 Rx 2  00 00 
    338      2223.966 DT 00788245 Rx 1  00 
    339      2225.036 DT 00788246 Rx 5  99 1F 99 AE B9 
    340      2230.190 DT 00283C44 Rx 1  00 
    341      2230.368 DT 002800AA Rx 2  95 01 
    342      2230.542 DT 00283C45 Rx 2  01 00 
    343      2247.845 DT 008200AA Rx 3  46 02 00 
    344      2262.440 DT 00C800AA Rx 2  F0 01 
    345      2262.596 DT 00C83C44 Rx 1  00 
    346      2272.024 DT 007800AA Rx 2  93 01 
    347      2273.029 DT 00788244 Rx 2  00 00 
    348      2274.007 DT 00788245 Rx 1  00 
    349      2275.073 DT 00788246 Rx 5  99 1F 99 AE B9 
    350      2280.210 DT 00283C44 Rx 1  00 
    351      2312.465 DT 00C83C44 Rx 1  00 
    352      2323.057 DT 00788244 Rx 2  00 00 
    353      2324.041 DT 00788245 Rx 1  00 
    354      2325.101 DT 00788246 Rx 5  99 1F 99 AE B9 
    355      2330.286 DT 00283C44 Rx 1  00 
    356      2330.419 DT 002800AA Rx 2  96 01 
    357      2330.580 DT 00283C45 Rx 2  01 00 
    358      2347.833 DT 008200AA Rx 3  47 02 00 
    359      2362.528 DT 00C800AA Rx 2  F1 01 
    360      2362.685 DT 00C83C44 Rx 1  00 
    361      2372.080 DT 007800AA Rx 2  94 01 
    362      2373.081 DT 00788244 Rx 2  00 00 
    363      2374.065 DT 00788245 Rx 1  00 
    364      2375.133 DT 00788246 Rx 5  99 1F 99 AE B9 
    365      2380.244 DT 00283C44 Rx 1  00 
    366      2412.545 DT 00C83C44 Rx 1  00 
    367      2423.124 DT 00788244 Rx 2  00 00 
    368      2424.106 DT 00788245 Rx 1  00 
    369      2425.166 DT 00788246 Rx 5  99 1F 99 AE B9 
    370      2430.267 DT 00283C44 Rx 1  00 
    371      2430.445 DT 002800AA Rx 2  97 01 
    372      2430.619 DT 00283C45 Rx 2  01 00 
    373      2447.810 DT 008200AA Rx 3  48 02 00 
    374      2462.607 DT 00C800AA Rx 2  F2 01 
    375      2462.763 DT 00C83C44 Rx 1  00 
    376      2472.145 DT 007800AA Rx 2  95 01 
    377      2473.146 DT 00788244 Rx 2  00 00 
    378      2474.126 DT 00788245 Rx 1  00 
    379      2475.194 DT 00788246 Rx 5  99 1F 99 AE B9 
    380      2480.287 DT 00283C44 Rx 1  00 
    381      2512.634 DT 00C83C44 Rx 1  00 
    382      2523.180 DT 00788244 Rx 2  00 00 
    383      2524.162 DT 00788245 Rx 1  00 
    384      2525.230 DT 00788246 Rx 5  99 1F 99 AE B9 
    385      2530.305 DT 00283C44 Rx 1  00 
    386      2530.486 DT 002800AA Rx 2  98 01 
    387      2530.660 DT 00283C45 Rx 2  01 00 
    388      2547.797 DT 008200AA Rx 3  49 02 00 
    389      2562.702 DT 00C800AA Rx 2  F3 01 
    390      2562.858 DT 00C83C44 Rx 1  00 
    391      2572.216 DT 007800AA Rx 2  96 01 
    392      2573.221 DT 00788244 Rx 2  00 00 
    393      2574.203 DT 00788245 Rx 1  00 
    394      2575.265 DT 00788246 Rx 5  99 1F 99 AE B9 
    395      2580.326 DT 00283C44 Rx 1  00 
    396      2612.729 DT 00C83C44 Rx 1  00 
    397      2623.267 DT 00788244 Rx 2  00 00 
    398      2624.247 DT 00788245 Rx 1  00 
    399      2625.309 DT 00788246 Rx 5  99 1F 99 AE B9 
    400      2630.343 DT 00283C44 Rx 1  00 
    401      2630.519 DT 002800AA Rx 2  99 01 
    402      2630.693 DT 00283C45 Rx 2  01 00 
    403      2630.921 DT 00283C46 Rx 5  64 15 00 00 08 
    404      2647.777 DT 008200AA Rx 3  4A 02 00 
    405      2662.797 DT 00C800AA Rx 2  F4 01 
    406      2662.953 DT 00C83C44 Rx 1  00 
    407      2673.307 DT 007800AA Rx 2  97 01 
    408      2674.303 DT 00788244 Rx 2  00 00 
    409      2675.286 DT 00788245 Rx 1  00 
    410      2676.352 DT 00788246 Rx 5  99 1F 99 AE B9 
    411      2680.353 DT 00283C44 Rx 1  00 
    412      2712.822 DT 00C83C44 Rx 1  00 
    413      2724.340 DT 00788244 Rx 2  00 00 
    414      2725.316 DT 00788245 Rx 1  00 
    415      2726.379 DT 00788246 Rx 5  99 1F 99 AE B9 
    416      2730.373 DT 00283C44 Rx 1  00 
    417      2730.551 DT 002800AA Rx 2  9A 01 
    418      2730.725 DT 00283C45 Rx 2  01 00 
    419      2747.762 DT 008200AA Rx 3  4B 02 00 
    420      2762.886 DT 00C800AA Rx 2  F5 01 
    421      2763.042 DT 00C83C44 Rx 1  00 
    422      2773.372 DT 007800AA Rx 2  98 01 
    423      2774.370 DT 00788244 Rx 2  00 00 
    424      2775.352 DT 00788245 Rx 1  00 
    425      2776.416 DT 00788246 Rx 5  99 1F 99 AE B9 
    426      2780.385 DT 00283C44 Rx 1  00 
    427      2812.910 DT 00C83C44 Rx 1  00 
    428      2824.409 DT 00788244 Rx 2  00 00 
    429      2825.393 DT 00788245 Rx 1  00 
    430      2826.454 DT 00788246 Rx 5  99 1F 99 AE B9 
    431      2830.398 DT 00283C44 Rx 1  00 
    432      2830.576 DT 002800AA Rx 2  9B 01 
    433      2830.750 DT 00283C45 Rx 2  01 00 
    434      2847.743 DT 008200AA Rx 3  4C 02 00 
    435      2862.968 DT 00C800AA Rx 2  F6 01 
    436      2863.125 DT 00C83C44 Rx 1  00 
    437      2873.449 DT 007800AA Rx 2  99 01 
    438      2874.449 DT 00788244 Rx 2  00 00 
    439      2875.431 DT 00788245 Rx 1  00 
    440      2876.501 DT 00788246 Rx 5  99 1F 99 AE B9 
    441      2880.414 DT 00283C44 Rx 1  00 
    442      2912.993 DT 00C83C44 Rx 1  00 
    443      2924.492 DT 00788244 Rx 2  00 00 
    444      2925.472 DT 00788245 Rx 1  00 
    445      2926.537 DT 00788246 Rx 5  99 1F 99 AE B9 
    446      2930.431 DT 00283C44 Rx 1  00 
    447      2930.609 DT 002800AA Rx 2  9C 01 
    448      2930.783 DT 00283C45 Rx 2  01 00 
    449      2947.728 DT 008200AA Rx 3  4D 02 00 
    450      2963.067 DT 00C800AA Rx 2  F7 01 
    451      2963.223 DT 00C83C44 Rx 1  00 
    452      2973.528 DT 007800AA Rx 2  9A 01 
    453      2974.534 DT 00788244 Rx 2  00 00 
    454      2975.510 DT 00788245 Rx 1  00 
    455      2976.578 DT 00788246 Rx 5  99 1F 99 AE B9 
    456      2980.451 DT 00283C44 Rx 1  00 
    457      3013.096 DT 00C83C44 Rx 1  00 
    458      3024.574 DT 00788244 Rx 2  00 00 
    459      3025.548 DT 00788245 Rx 1  00 
    460      3026.613 DT 00788246 Rx 5  99 1F 99 AE B9 
    461      3030.470 DT 00283C44 Rx 1  00 
    462      3030.737 DT 002800AA Rx 2  9D 01 
    463      3030.860 DT 00283C45 Rx 2  01 00 
    464      3047.698 DT 008200AA Rx 3  4E 02 00 
    465      3063.174 DT 00C800AA Rx 2  F8 01 
    466      3063.496 DT 00C83C44 Rx 1  00 
    467      3073.603 DT 007800AA Rx 2  9B 01 
    468      3074.606 DT 00788244 Rx 2  00 00 
    469      3075.621 DT 00788245 Rx 1  00 
    470      3076.658 DT 00788246 Rx 5  99 1F 99 AE B9 
    471      3080.477 DT 00283C44 Rx 1  00 
    472      3113.194 DT 00C83C44 Rx 1  00 
    473      3124.738 DT 00788244 Rx 2  00 00 
    474      3125.632 DT 00788245 Rx 1  00 
    475      3126.699 DT 00788246 Rx 5  99 1F 99 AE B9 
    476      3130.497 DT 00283C44 Rx 1  00 
    477      3130.674 DT 002800AA Rx 2  9E 01 
    478      3130.848 DT 00283C45 Rx 2  01 00 
    479      3131.076 DT 00283C46 Rx 5  64 15 00 00 08 
    480      3147.676 DT 008200AA Rx 3  4F 02 00 
    481      3163.261 DT 00C800AA Rx 2  F9 01 
    482      3163.416 DT 00C83C44 Rx 1  00 
    483      3173.677 DT 007800AA Rx 2  9C 01 
    484      3174.680 DT 00788244 Rx 2  00 00 
    485      3175.658 DT 00788245 Rx 1  00 
    486      3176.726 DT 00788246 Rx 5  99 1F 99 AE B9 
    487      3180.519 DT 00283C44 Rx 1  00 
    488      3213.284 DT 00C83C44 Rx 1  00 
    489      3224.715 DT 00788244 Rx 2  00 00 
    490      3225.685 DT 00788245 Rx 1  00 
    491      3226.754 DT 00788246 Rx 5  99 1F 99 AE B9 
    492      3230.542 DT 00283C44 Rx 1  00 
    493      3230.720 DT 002800AA Rx 2  9F 01 
    494      3230.894 DT 00283C45 Rx 2  01 00 
    495      3248.163 DT 008200AA Rx 3  50 02 00 
    496      3263.354 DT 00C800AA Rx 2  FA 01 
    497      3263.510 DT 00C83C44 Rx 1  00 
    498      3273.738 DT 007800AA Rx 2  9D 01 
    499      3274.747 DT 00788244 Rx 2  00 00 
    500      3275.719 DT 00788245 Rx 1  00 
    501      3276.789 DT 00788246 Rx 5  99 1F 99 AE B9 
    502      3280.560 DT 00283C44 Rx 1  00 
    503      3313.379 DT 00C83C44 Rx 1  00 
    504      3324.783 DT 00788244 Rx 2  00 00 
    505      3325.757 DT 00788245 Rx 1  00 
    506      3326.822 DT 00788246 Rx 5  99 1F 99 AE B9 
    507      3330.584 DT 00283C44 Rx 1  00 
    508      3330.763 DT 002800AA Rx 2  A0 01 
    509      3330.937 DT 00283C45 Rx 2  01 00 
    510      3348.144 DT 008200AA Rx 3  51 02 00 
    511      3363.449 DT 00C800AA Rx 2  FB 01 
    512      3363.605 DT 00C83C44 Rx 1  00 
    513      3373.811 DT 007800AA Rx 2  9E 01 
    514      3374.814 DT 00788244 Rx 2  00 00 
    515      3375.798 DT 00788245 Rx 1  00 
    516      3376.864 DT 00788246 Rx 5  99 1F 99 AE B9 
    517      3380.599 DT 00283C44 Rx 1  00 
    518      3413.476 DT 00C83C44 Rx 1  00 
    519      3424.868 DT 00788244 Rx 2  00 00 
    520      3425.844 DT 00788245 Rx 1  00 
    521      3426.905 DT 00788246 Rx 5  99 1F 99 AE B9 
    522      3430.623 DT 00283C44 Rx 1  00 
    523      3430.800 DT 002800AA Rx 2  A1 01 
    524      3430.974 DT 00283C45 Rx 2  01 00 
    525      3448.124 DT 008200AA Rx 3  52 02 00 
    526      3463.558 DT 00C800AA Rx 2  FC 01 
    527      3463.714 DT 00C83C44 Rx 1  00 
    528      3473.904 DT 007800AA Rx 2  9F 01 
    529      3474.900 DT 00788244 Rx 2  00 00 
    530      3475.883 DT 00788245 Rx 1  00 
    531      3476.945 DT 00788246 Rx 5  99 1F 99 AE B9 
    532      3480.650 DT 00283C44 Rx 1  00 
    533      3513.595 DT 00C83C44 Rx 1  00 
    534      3524.951 DT 00788244 Rx 2  00 00 
    535      3525.927 DT 00788245 Rx 1  00 
    536      3526.996 DT 00788246 Rx 5  99 1F 99 AE B9 
    537      3530.664 DT 00283C44 Rx 1  00 
    538      3530.843 DT 002800AA Rx 2  A2 01 
    539      3531.017 DT 00283C45 Rx 2  01 00 
    540      3548.110 DT 008200AA Rx 3  53 02 00 
    541      3563.667 DT 00C800AA Rx 2  FD 01 
    542      3563.823 DT 00C83C44 Rx 1  00 
    543      3573.980 DT 007800AA Rx 2  A0 01 
    544      3574.986 DT 00788244 Rx 2  00 00 
    545      3575.966 DT 00788245 Rx 1  00 
    546      3577.028 DT 00788246 Rx 5  99 1F 99 AE B9 
    547      3580.691 DT 00283C44 Rx 1  00 
    548      3613.688 DT 00C83C44 Rx 1  00 
    549      3625.018 DT 00788244 Rx 2  00 00 
    550      3625.998 DT 00788245 Rx 1  00 
    551      3627.067 DT 00788246 Rx 5  99 1F 99 AE B9 
    552      3630.711 DT 00283C44 Rx 1  00 
    553      3630.888 DT 002800AA Rx 2  A3 01 
    554      3631.062 DT 00283C45 Rx 2  01 00 
    555      3631.290 DT 00283C46 Rx 5  64 15 00 00 08 
    556      3648.094 DT 008200AA Rx 3  54 02 00 
    557      3663.754 DT 00C800AA Rx 2  FE 01 
    558      3663.910 DT 00C83C44 Rx 1  00 
    559      3675.064 DT 007800AA Rx 2  A1 01 
    560      3676.066 DT 00788244 Rx 2  00 00 
    561      3677.054 DT 00788245 Rx 1  00 
    562      3678.112 DT 00788246 Rx 5  99 1F 99 AE B9 
    563      3680.727 DT 00283C44 Rx 1  00 
    564      3713.772 DT 00C83C44 Rx 1  00 
    565      3726.101 DT 00788244 Rx 2  00 00 
    566      3727.086 DT 00788245 Rx 1  00 
    567      3728.154 DT 00788246 Rx 5  99 1F 99 AE B9 
    568      3730.851 DT 00283C44 Rx 1  00 
    569      3730.978 DT 002800AA Rx 2  A4 01 
    570      3731.109 DT 00283C45 Rx 2  01 00 
    571      3748.073 DT 008200AA Rx 3  55 02 00 
    572      3763.850 DT 00C800AA Rx 2  FF 01 
    573      3764.006 DT 00C83C44 Rx 1  00 
    574      3775.149 DT 007800AA Rx 2  A2 01 
    575      3776.143 DT 00788244 Rx 2  00 00 
    576      3777.121 DT 00788245 Rx 1  00 
    577      3778.183 DT 00788246 Rx 5  99 1F 99 AE B9 
    578      3780.768 DT 00283C44 Rx 1  00 
    579      3813.871 DT 00C83C44 Rx 1  00 
    580      3826.175 DT 00788244 Rx 2  00 00 
    581      3827.156 DT 00788245 Rx 1  00 
    582      3828.222 DT 00788246 Rx 5  99 1F 99 AE B9 
    583      3830.792 DT 00283C44 Rx 1  00 
    584      3830.969 DT 002800AA Rx 2  A5 01 
    585      3831.143 DT 00283C45 Rx 2  01 00 
    586      3848.058 DT 008200AA Rx 3  56 02 00 
    587      3863.951 DT 00C800AA Rx 2  00 01 
    588      3864.107 DT 00C83C44 Rx 1  00 
    589      3875.208 DT 007800AA Rx 2  A3 01 
    590      3876.212 DT 00788244 Rx 2  00 00 
    591      3877.188 DT 00788245 Rx 1  00 
    592      3878.275 DT 00788246 Rx 5  99 1F 99 AE B9 
    593      3880.803 DT 00283C44 Rx 1  00 
    594      3913.982 DT 00C83C44 Rx 1  00 
    595      3926.254 DT 00788244 Rx 2  00 00 
    596      3927.233 DT 00788245 Rx 1  00 
    597      3928.301 DT 00788246 Rx 5  99 1F 99 AE B9 
    598      3930.863 DT 00283C44 Rx 1  00 
    599      3931.041 DT 002800AA Rx 2  A6 01 
    600      3931.215 DT 00283C45 Rx 2  01 00 
    601      3948.038 DT 008200AA Rx 3  57 02 00 
    602      3964.054 DT 00C800AA Rx 2  01 01 
    603      3964.282 DT 00C83C44 Rx 1  00 
    604      3975.276 DT 007800AA Rx 2  A4 01 
    605      3976.278 DT 00788244 Rx 2  00 00 
    606      3977.258 DT 00788245 Rx 1  00 
    607      3978.324 DT 00788246 Rx 5  99 1F 99 AE B9 
    608      3980.889 DT 00283C44 Rx 1  00 
    609      4014.076 DT 00C83C44 Rx 1  00 
    610      4026.315 DT 00788244 Rx 2  00 00 
    611      4027.290 DT 00788245 Rx 1  00 
    612      4028.362 DT 00788246 Rx 5  99 1F 99 AE B9 
    613      4030.914 DT 00283C44 Rx 1  00 
    614      4031.092 DT 002800AA Rx 2  A7 01 
    615      4031.266 DT 00283C45 Rx 2  01 00 
    616      4048.011 DT 008200AA Rx 3  58 02 00 
    617      4064.139 DT 00C800AA Rx 2  02 01 
    618      4064.296 DT 00C83C44 Rx 1  00 
    619      4075.340 DT 007800AA Rx 2  A5 01 
    620      4076.342 DT 00788244 Rx 2  00 00 
    621      4077.318 DT 00788245 Rx 1  00 
    622      4078.384 DT 00788246 Rx 5  99 1F 99 AE B9 
    623      4080.921 DT 00283C44 Rx 1  00 
    624      4114.168 DT 00C83C44 Rx 1  00 
    625      4126.379 DT 00788244 Rx 2  00 00 
    626      4127.354 DT 00788245 Rx 1  00 
    627      4128.424 DT 00788246 Rx 5  99 1F 99 AE B9 
    628      4130.942 DT 00283C44 Rx 1  00 
    629      4131.120 DT 002800AA Rx 2  A8 01 
    630      4131.294 DT 00283C45 Rx 2  01 00 
    631      4131.522 DT 00283C46 Rx 5  64 15 00 00 08 
    632      4147.994 DT 008200AA Rx 3  59 02 00 
    633      4164.240 DT 00C800AA Rx 2  03 01 
    634      4164.396 DT 00C83C44 Rx 1  00 
    635      4175.413 DT 007800AA Rx 2  A6 01 
    636      4176.421 DT 00788244 Rx 2  00 00 
    637      4177.397 DT 00788245 Rx 1  00 
    638      4178.461 DT 00788246 Rx 5  99 1F 99 AE B9 
    639      4180.958 DT 00283C44 Rx 1  00 
    640      4214.269 DT 00C83C44 Rx 1  00 
    641      4226.459 DT 00788244 Rx 2  00 00 
    642      4227.440 DT 00788245 Rx 1  00 
    643      4228.504 DT 00788246 Rx 5  99 1F 99 AE B9 
    644      4230.978 DT 00283C44 Rx 1  00 
    645      4231.154 DT 002800AA Rx 2  A9 01 
    646      4231.328 DT 00283C45 Rx 2  01 00 
    647      4248.479 DT 008200AA Rx 3  5A 02 00 
    648      4264.331 DT 00C800AA Rx 2  04 01 
    649      4264.487 DT 00C83C44 Rx 1  00 
    650      4275.502 DT 007800AA Rx 2  A7 01 
    651      4276.495 DT 00788244 Rx 2  00 00 
    652      4277.473 DT 00788245 Rx 1  00 
    653      4278.543 DT 00788246 Rx 5  99 1F 99 AE B9 
    654      4280.996 DT 00283C44 Rx 1  00 
    655      4314.359 DT 00C83C44 Rx 1  00 
    656      4326.534 DT 00788244 Rx 2  00 00 
    657      4327.515 DT 00788245 Rx 1  00 
    658      4328.585 DT 00788246 Rx 5  99 1F 99 AE B9 
    659      4331.015 DT 00283C44 Rx 1  00 
    660      4331.191 DT 002800AA Rx 2  AA 01 
    661      4331.366 DT 00283C45 Rx 2  01 00 
    662      4348.456 DT 008200AA Rx 3  5B 02 00 
    663      4364.432 DT 00C800AA Rx 2  05 01 
    664      4364.588 DT 00C83C44 Rx 1  00 
    665      4375.566 DT 007800AA Rx 2  A8 01 
    666      4376.571 DT 00788244 Rx 2  00 00 
    667      4377.539 DT 00788245 Rx 1  00 
    668      4378.609 DT 00788246 Rx 5  99 1F 99 AE B9 
    669      4381.030 DT 00283C44 Rx 1  00 
    670      4414.451 DT 00C83C44 Rx 1  00 
    671      4426.613 DT 00788244 Rx 2  00 00 
    672      4427.586 DT 00788245 Rx 1  00 
    673      4428.650 DT 00788246 Rx 5  99 1F 99 AE B9 
    674      4431.112 DT 00283C44 Rx 1  00 
    675      4431.314 DT 002800AA Rx 2  AB 01 
    676      4431.439 DT 00283C45 Rx 2  01 00 
    677      4448.445 DT 008200AA Rx 3  5C 02 00 
    678      4464.523 DT 00C800AA Rx 2  06 01 
    679      4464.679 DT 00C83C44 Rx 1  00 
    680      4475.643 DT 007800AA Rx 2  A9 01 
    681      4476.644 DT 00788244 Rx 2  00 00 
    682      4477.624 DT 00788245 Rx 1  00 
    683      4478.690 DT 00788246 Rx 5  99 1F 99 AE B9 
    684      4481.067 DT 00283C44 Rx 1  00 
    685      4514.545 DT 00C83C44 Rx 1  00 
    686      4526.674 DT 00788244 Rx 2  00 00 
    687      4527.655 DT 00788245 Rx 1  00 
    688      4528.717 DT 00788246 Rx 5  99 1F 99 AE B9 
    689      4531.085 DT 00283C44 Rx 1  00 
    690      4531.261 DT 002800AA Rx 2  AC 01 
    691      4531.435 DT 00283C45 Rx 2  01 00 
    692      4548.425 DT 008200AA Rx 3  5D 02 00 
    693      4564.618 DT 00C800AA Rx 2  07 01 
    694      4564.774 DT 00C83C44 Rx 1  00 
    695      4575.714 DT 007800AA Rx 2  AA 01 
    696      4576.716 DT 00788244 Rx 2  00 00 
    697      4577.692 DT 00788245 Rx 1  00 
    698      4578.756 DT 00788246 Rx 5  99 1F 99 AE B9 
    699      4581.103 DT 00283C44 Rx 1  00 
    700      4614.644 DT 00C83C44 Rx 1  00 
    701      4626.747 DT 00788244 Rx 2  00 00 
    702      4627.730 DT 00788245 Rx 1  00 
    703      4628.792 DT 00788246 Rx 5  99 1F 99 AE B9 
    704      4631.124 DT 00283C44 Rx 1  00 
    705      4631.300 DT 002800AA Rx 2  AD 01 
    706      4631.474 DT 00283C45 Rx 2  01 00 
    707      4631.779 DT 00283C46 Rx 5  64 15 00 00 08 
    708      4648.406 DT 008200AA Rx 3  5E 02 00 
    709      4664.710 DT 00C800AA Rx 2  08 01 
    710      4664.867 DT 00C83C44 Rx 1  00 
    711      4676.798 DT 007800AA Rx 2  AB 01 
    712      4677.791 DT 00788244 Rx 2  00 00 
    713      4678.773 DT 00788245 Rx 1  00 
    714      4679.835 DT 00788246 Rx 5  99 1F 99 AE B9 
    715      4681.140 DT 00283C44 Rx 1  00 
    716      4714.731 DT 00C83C44 Rx 1  00 
    717      4727.829 DT 00788244 Rx 2  00 00 
    718      4728.803 DT 00788245 Rx 1  00 
    719      4729.869 DT 00788246 Rx 5  99 1F 99 AE B9 
    720      4731.151 DT 00283C44 Rx 1  00 
    721      4731.327 DT 002800AA Rx 2  AE 01 
    722      4731.501 DT 00283C45 Rx 2  01 00 
    723      4748.393 DT 008200AA Rx 3  5F 02 00 
    724      4764.797 DT 00C800AA Rx 2  09 01 
    725      4764.953 DT 00C83C44 Rx 1  00 
    726      4776.854 DT 007800AA Rx 2  AC 01 
    727      4777.856 DT 00788244 Rx 2  00 00 
    728      4778.840 DT 00788245 Rx 1  00 
    729      4779.902 DT 00788246 Rx 5  99 1F 99 AE B9 
    730      4781.163 DT 00283C44 Rx 1  00 
    731      4814.824 DT 00C83C44 Rx 1  00 
    732      4827.891 DT 00788244 Rx 2  00 00 
    733      4828.875 DT 00788245 Rx 1  00 
    734      4829.939 DT 00788246 Rx 5  99 1F 99 AE B9 
    735      4831.179 DT 00283C44 Rx 1  00 
    736      4831.357 DT 002800AA Rx 2  AF 01 
    737      4831.531 DT 00283C45 Rx 2  01 00 
    738      4848.377 DT 008200AA Rx 3  60 02 00 
    739      4864.895 DT 00C800AA Rx 2  0A 01 
    740      4865.052 DT 00C83C44 Rx 1  00 
    741      4876.938 DT 007800AA Rx 2  AD 01 
    742      4877.932 DT 00788244 Rx 2  00 00 
    743      4878.920 DT 00788245 Rx 1  00 
    744      4879.976 DT 00788246 Rx 5  99 1F 99 AE B9 
    745      4881.195 DT 00283C44 Rx 1  00 
    746      4914.920 DT 00C83C44 Rx 1  00 
    747      4927.966 DT 00788244 Rx 2  00 00 
    748      4928.942 DT 00788245 Rx 1  00 
    749      4930.006 DT 00788246 Rx 5  99 1F 99 AE B9 
    750      4931.212 DT 00283C44 Rx 1  00 
    751      4931.390 DT 002800AA Rx 2  B0 01 
    752      4931.564 DT 00283C45 Rx 2  01 00 
    753      4948.354 DT 008200AA Rx 3  61 02 00 
    754      4964.998 DT 00C800AA Rx 2  0B 01 
    755      4965.154 DT 00C83C44 Rx 1  00 
    756      4976.999 DT 007800AA Rx 2  AE 01 
    757      4978.001 DT 00788244 Rx 2  00 00 
    758      4978.981 DT 00788245 Rx 1  00 
    759      4980.043 DT 00788246 Rx 5  99 1F 99 AE B9 
    760      4981.234 DT 00283C44 Rx 1  00 
    761      5015.023 DT 00C83C44 Rx 1  00 
    762      5028.046 DT 00788244 Rx 2  00 00 
    763      5029.020 DT 00788245 Rx 1  00 
    764      5030.086 DT 00788246 Rx 5  99 1F 99 AE B9 
    765      5031.252 DT 00283C44 Rx 1  00 
    766      5031.779 DT 00283C45 Rx 2  01 00 
    767      5048.325 DT 008200AA Rx 3  62 02 00 
    768      5065.079 DT 00C800AA Rx 2  0C 01 
    769      5065.236 DT 00C83C44 Rx 1  00 
    770      5077.060 DT 007800AA Rx 2  AF 01 
    771      5078.129 DT 00788244 Rx 2  00 00 
    772      5079.046 DT 00788245 Rx 1  00 
    773      5080.112 DT 00788246 Rx 5  99 1F 99 AE B9 
    774      5081.263 DT 00283C44 Rx 1  00 
    775      5115.100 DT 00C83C44 Rx 1  00 
    776      5128.098 DT 00788244 Rx 2  00 00 
    777      5129.078 DT 00788245 Rx 1  00 
    778      5130.142 DT 00788246 Rx 5  99 1F 99 AE B9 
    779      5131.278 DT 00283C44 Rx 1  00 
    780      5131.614 DT 002800AA Rx 2  B2 01 
    781      5131.746 DT 00283C45 Rx 2  01 00 
    782      5131.876 DT 00283C46 Rx 5  64 15 00 00 08 
    783      5148.306 DT 008200AA Rx 3  63 02 00 
    784      5165.171 DT 00C800AA Rx 2  0D 01 
    785      5165.327 DT 00C83C44 Rx 1  00 
    786      5177.137 DT 007800AA Rx 2  B0 01 
    787      5178.141 DT 00788244 Rx 2  00 00 
    788      5179.117 DT 00788245 Rx 1  00 
    789      5180.186 DT 00788246 Rx 5  99 1F 99 AE B9 
    790      5181.297 DT 00283C44 Rx 1  00 
    791      5215.197 DT 00C83C44 Rx 1  00 
    792      5228.177 DT 00788244 Rx 2  00 00 
    793      5229.153 DT 00788245 Rx 1  00 
    794      5230.219 DT 00788246 Rx 5  99 1F 99 AE B9 
    795      5231.315 DT 00283C44 Rx 1  00 
    796      5231.491 DT 002800AA Rx 2  B3 01 
    797      5231.665 DT 00283C45 Rx 2  01 00 
    798      5248.789 DT 008200AA Rx 3  64 02 00 
    799      5265.269 DT 00C800AA Rx 2  0E 01 
    800      5265.426 DT 00C83C44 Rx 1  00 
    801      5277.210 DT 007800AA Rx 2  B1 01 
    802      5278.214 DT 00788244 Rx 2  00 00 
    803      5279.198 DT 00788245 Rx 1  00 
    804      5280.264 DT 00788246 Rx 5  99 1F 99 AE B9 
    805      5281.327 DT 00283C44 Rx 1  00 
    806      5315.296 DT 00C83C44 Rx 1  00 
    807      5328.260 DT 00788244 Rx 2  00 00 
    808      5329.238 DT 00788245 Rx 1  00 
    809      5330.302 DT 00788246 Rx 5  99 1F 99 AE B9 
    810      5331.344 DT 00283C44 Rx 1  00 
    811      5331.520 DT 002800AA Rx 2  B4 01 
    812      5331.694 DT 00283C45 Rx 2  01 00 
    813      5348.776 DT 008200AA Rx 3  65 02 00 
    814      5365.356 DT 00C800AA Rx 2  0F 01 
    815      5365.513 DT 00C83C44 Rx 1  00 
    816      5377.283 DT 007800AA Rx 2  B2 01 
    817      5378.285 DT 00788244 Rx 2  00 00 
    818      5379.269 DT 00788245 Rx 1  00 
    819      5380.329 DT 00788246 Rx 5  99 1F 99 AE B9 
    820      5381.352 DT 00283C44 Rx 1  00 
    821      5415.383 DT 00C83C44 Rx 1  00 
    822      5428.323 DT 00788244 Rx 2  00 00 
    823      5429.309 DT 00788245 Rx 1  00 
    824      5430.375 DT 00788246 Rx 5  99 1F 99 AE B9 
    825      5431.367 DT 00283C44 Rx 1  00 
    826      5431.545 DT 002800AA Rx 2  B5 01 
    827      5431.719 DT 00283C45 Rx 2  01 00 
    828      5448.757 DT 008200AA Rx 3  66 02 00 
    829      5465.443 DT 00C800AA Rx 2  10 01 
    830      5465.599 DT 00C83C44 Rx 1  00 
    831      5477.368 DT 007800AA Rx 2  B3 01 
    832      5478.374 DT 00788244 Rx 2  00 00 
    833      5479.352 DT 00788245 Rx 1  00 
    834      5480.420 DT 00788246 Rx 5  99 1F 99 AE B9 
    835      5481.383 DT 00283C44 Rx 1  00 
    836      5515.462 DT 00C83C44 Rx 1  00 
    837      5528.415 DT 00788244 Rx 2  00 00 
    838      5529.381 DT 00788245 Rx 1  00 
    839      5530.449 DT 00788246 Rx 5  99 1F 99 AE B9 
    840      5531.405 DT 00283C44 Rx 1  00 
    841      5531.581 DT 002800AA Rx 2  B6 01 
    842      5531.755 DT 00283C45 Rx 2  01 00 
    843      5548.741 DT 008200AA Rx 3  67 02 00 
    844      5565.525 DT 00C800AA Rx 2  11 01 
    845      5565.682 DT 00C83C44 Rx 1  00 
    846      5577.428 DT 007800AA Rx 2  B4 01 
    847      5578.434 DT 00788244 Rx 2  00 00 
    848      5579.412 DT 00788245 Rx 1  00 
    849      5580.474 DT 00788246 Rx 5  99 1F 99 AE B9 
    850      5581.419 DT 00283C44 Rx 1  00 
    851      5615.554 DT 00C83C44 Rx 1  00 
    852      5619.431 DT 00280047 Rx 1  01 
    853      5628.474 DT 00788244 Rx 2  00 00 
    854      5629.434 DT 00280047 Rx 1  01 
    855      5629.592 DT 00788245 Rx 1  00 
    856      5630.518 DT 00788246 Rx 5  99 1F 99 AE B9 
    857      5631.432 DT 00283C44 Rx 1  01 
    858      5631.611 DT 002800AA Rx 2  B7 01 
    859      5631.785 DT 00283C45 Rx 2  01 00 
    860      5632.013 DT 00283C46 Rx 5  64 15 00 00 08 
    861      5639.439 DT 00280047 Rx 1  01 
    862      5648.721 DT 008200AA Rx 3  68 02 00 
    863      5649.440 DT 00280047 Rx 1  01 
    864      5659.443 DT 00280047 Rx 1  01 
    865      5665.615 DT 00C800AA Rx 2  12 01 
    866      5665.772 DT 00C83C44 Rx 1  00 
    867      5669.446 DT 00280047 Rx 1  01 
    868      5678.512 DT 007800AA Rx 2  B5 01 
    869      5679.448 DT 00280047 Rx 1  01 
    870      5679.627 DT 00788244 Rx 2  00 00 
    871      5680.497 DT 00788245 Rx 1  00 
    872      5681.448 DT 00283C44 Rx 1  01 
    873      5681.670 DT 00788246 Rx 5  99 1F 99 AE B9 
    874      5689.453 DT 00280047 Rx 1  01 
    875      5699.458 DT 00280047 Rx 1  01 
    876      5709.458 DT 00280047 Rx 1  01 
    877      5715.643 DT 00C83C44 Rx 1  00 
    878      5719.462 DT 00280047 Rx 1  01 
    879      5729.469 DT 00280047 Rx 1  01 
    880      5729.647 DT 00788244 Rx 2  00 00 
    881      5730.537 DT 00788245 Rx 1  00 
    882      5731.467 DT 00283C44 Rx 1  01 
    883      5731.645 DT 002800AA Rx 2  B8 01 
    884      5731.819 DT 00283C45 Rx 2  01 00 
    885      5732.042 DT 00788246 Rx 5  99 1F 99 AE B9 
    886      5739.472 DT 00280047 Rx 1  01 
    887      5748.710 DT 008200AA Rx 3  69 02 00 
    888      5749.477 DT 00280047 Rx 1  01 
    889      5759.478 DT 00280047 Rx 1  01 
    890      5765.706 DT 00C800AA Rx 2  13 01 
    891      5765.863 DT 00C83C44 Rx 1  00 
    892      5769.483 DT 00280047 Rx 1  01 
    893      5778.591 DT 007800AA Rx 2  B6 01 
    894      5779.483 DT 00280047 Rx 1  01 
    895      5779.662 DT 00788244 Rx 2  00 00 
    896      5780.578 DT 00788245 Rx 1  00 
    897      5781.481 DT 00283C44 Rx 1  01 
    898      5781.703 DT 00788246 Rx 5  99 1F 99 AE B9 
    899      5789.490 DT 00280047 Rx 1  01 
    900      5799.495 DT 00280047 Rx 1  01 
    901      5809.501 DT 00280047 Rx 1  01 
    902      5815.732 DT 00C83C44 Rx 1  00 
    903      5829.640 DT 00788244 Rx 2  00 00 
    904      5830.622 DT 00788245 Rx 1  00 
    905      5831.504 DT 00283C44 Rx 1  00 
    906      5831.745 DT 002800AA Rx 2  B9 01 
    907      5831.871 DT 00283C45 Rx 2  01 00 
    908      5832.077 DT 00788246 Rx 5  99 1F 99 AE B9 
    909      5848.690 DT 008200AA Rx 3  6A 02 00 
    910      5865.796 DT 00C800AA Rx 2  14 01 
    911      5865.953 DT 00C83C44 Rx 1  00 
    912      5878.679 DT 007800AA Rx 2  B7 01 
    913      5879.679 DT 00788244 Rx 2  00 00 
    914      5880.659 DT 00788245 Rx 1  00 
    915      5881.520 DT 00283C44 Rx 1  00 
    916      5881.743 DT 00788246 Rx 5  99 1F 99 AE B9 
    917      5915.825 DT 00C83C44 Rx 1  00 
    918      5929.707 DT 00788244 Rx 2  00 00 
    919      5930.693 DT 00788245 Rx 1  00 
    920      5931.533 DT 00283C44 Rx 1  00 
    921      5931.709 DT 002800AA Rx 2  BA 01 
    922      5931.883 DT 00283C45 Rx 2  01 00 
    923      5932.106 DT 00788246 Rx 5  99 1F 99 AE B9 
    924      5948.673 DT 008200AA Rx 3  6B 02 00 
    925      5965.891 DT 00C800AA Rx 2  15 01 
    926      5966.048 DT 00C83C44 Rx 1  00 
    927      5978.746 DT 007800AA Rx 2  B8 01 
    928      5979.744 DT 00788244 Rx 2  00 00 
    929      5980.732 DT 00788245 Rx 1  00 
    930      5981.547 DT 00283C44 Rx 1  00 
    931      5981.792 DT 00788246 Rx 5  99 1F 99 AE B9 
    932      6015.930 DT 00C83C44 Rx 1  00 
    933      6029.780 DT 00788244 Rx 2  00 00 
    934      6030.770 DT 00788245 Rx 1  00 
    935      6031.558 DT 00283C44 Rx 1  00 
    936      6031.734 DT 002800AA Rx 2  BB 01 
    937      6031.908 DT 00283C45 Rx 2  01 00 
    938      6032.130 DT 00788246 Rx 5  99 1F 99 AE B9 
    939      6048.694 DT 008200AA Rx 3  6C 02 00 
    940      6065.967 DT 00C800AA Rx 2  16 01 
    941      6066.123 DT 00C83C44 Rx 1  00 
    942      6078.806 DT 007800AA Rx 2  B9 01 
    943      6079.802 DT 00788244 Rx 2  00 00 
    944      6080.784 DT 00788245 Rx 1  00 
    945      6081.561 DT 00283C44 Rx 1  00 
    946      6081.843 DT 00788246 Rx 5  99 1F 99 AE B9 
    947      6115.982 DT 00C83C44 Rx 1  00 
    948      6129.835 DT 00788244 Rx 2  00 00 
    949      6130.815 DT 00788245 Rx 1  00 
    950      6131.575 DT 00283C44 Rx 1  00 
    951      6131.752 DT 002800AA Rx 2  BC 01 
    952      6131.926 DT 00283C45 Rx 2  01 00 
    953      6132.154 DT 00283C46 Rx 5  64 15 00 00 08 
    954      6132.376 DT 00788246 Rx 5  99 1F 99 AE B9 
    955      6148.625 DT 008200AA Rx 3  6D 02 00 
    956      6166.054 DT 00C800AA Rx 2  17 01 
    957      6166.210 DT 00C83C44 Rx 1  00 
    958      6178.869 DT 007800AA Rx 2  BA 01 
    959      6179.867 DT 00788244 Rx 2  00 00 
    960      6180.849 DT 00788245 Rx 1  00 
    961      6181.588 DT 00283C44 Rx 1  00 
    962      6181.912 DT 00788246 Rx 5  99 1F 99 AE B9 
    963      6216.091 DT 00C83C44 Rx 1  00 
    964      6229.913 DT 00788244 Rx 2  00 00 
    965      6230.895 DT 00788245 Rx 1  00 
    966      6231.601 DT 00283C44 Rx 1  00 
    967      6231.779 DT 002800AA Rx 2  BD 01 
    968      6231.953 DT 00283C45 Rx 2  01 00 
    969      6232.175 DT 00788246 Rx 5  99 1F 99 AE B9 
    970      6249.109 DT 008200AA Rx 3  6E 02 00 
    971      6266.163 DT 00C800AA Rx 2  18 01 
    972      6266.319 DT 00C83C44 Rx 1  00 
    973      6278.944 DT 007800AA Rx 2  BB 01 
    974      6279.948 DT 00788244 Rx 2  00 00 
    975      6280.930 DT 00788245 Rx 1  00 
    976      6281.619 DT 00283C44 Rx 1  00 
    977      6281.991 DT 00788246 Rx 5  99 1F 99 AE B9 
    978      6316.180 DT 00C83C44 Rx 1  00 
    979      6329.991 DT 00788244 Rx 2  00 00 
    980      6330.971 DT 00788245 Rx 1  00 
    981      6331.634 DT 00283C44 Rx 1  00 
    982      6331.812 DT 002800AA Rx 2  BE 01 
    983      6331.986 DT 00283C45 Rx 2  01 00 
    984      6332.208 DT 00788246 Rx 5  99 1F 99 AE B9 
    985      6349.088 DT 008200AA Rx 3  6F 02 00 
    986      6366.240 DT 00C800AA Rx 2  19 01 
    987      6366.396 DT 00C83C44 Rx 1  00 
    988      6379.027 DT 007800AA Rx 2  BC 01 
    989      6380.029 DT 00788244 Rx 2  00 00 
    990      6381.011 DT 00788245 Rx 1  00 
    991      6381.660 DT 00283C44 Rx 1  00 
    992      6382.078 DT 00788246 Rx 5  99 1F 99 AE B9 
    993      6416.271 DT 00C83C44 Rx 1  00 
    994      6430.068 DT 00788244 Rx 2  00 00 
    995      6431.050 DT 00788245 Rx 1  00 
    996      6431.682 DT 00283C44 Rx 1  00 
    997      6431.863 DT 002800AA Rx 2  BF 01 
    998      6432.037 DT 00283C45 Rx 2  01 00 
    999      6432.259 DT 00788246 Rx 5  99 1F 99 AE B9 
   1000      6449.073 DT 008200AA Rx 3  70 02 00 
   1001      6466.413 DT 00C800AA Rx 2  1A 01 
   1002      6466.624 DT 00C83C44 Rx 1  00 
   1003      6479.096 DT 007800AA Rx 2  BD 01 
   1004      6480.102 DT 00788244 Rx 2  00 00 
   1005      6481.082 DT 00788245 Rx 1  00 
   1006      6481.703 DT 00283C44 Rx 1  00 
   1007      6482.145 DT 00788246 Rx 5  99 1F 99 AE B9 
   1008      6516.374 DT 00C83C44 Rx 1  00 
   1009      6530.127 DT 00788244 Rx 2  00 00 
   1010      6531.113 DT 00788245 Rx 1  00 
   1011      6531.719 DT 00283C44 Rx 1  00 
   1012      6531.957 DT 002800AA Rx 2  C0 01 
   1013      6532.111 DT 00283C45 Rx 2  01 00 
   1014      6532.294 DT 00788246 Rx 5  99 1F 99 AE B9 
   1015      6549.057 DT 008200AA Rx 3  71 02 00 
   1016      6566.451 DT 00C800AA Rx 2  1B 01 
   1017      6566.608 DT 00C83C44 Rx 1  00 
   1018      6579.170 DT 007800AA Rx 2  BE 01 
   1019      6580.166 DT 00788244 Rx 2  00 00 
   1020      6581.357 DT 00788245 Rx 1  00 
   1021      6581.737 DT 00283C44 Rx 1  00 
   1022      6582.220 DT 00788246 Rx 5  99 1F 99 AE B9 
   1023      6616.485 DT 00C83C44 Rx 1  00 
   1024      6630.224 DT 00788244 Rx 2  00 00 
   1025      6631.190 DT 00788245 Rx 1  00 
   1026      6631.760 DT 00283C44 Rx 1  00 
   1027      6631.939 DT 002800AA Rx 2  C1 01 
   1028      6632.113 DT 00283C45 Rx 2  01 00 
   1029      6632.341 DT 00283C46 Rx 5  64 15 00 00 08 
   1030      6632.563 DT 00788246 Rx 5  99 1F 99 AE B9 
   1031      6649.039 DT 008200AA Rx 3  72 02 00 
   1032      6666.559 DT 00C800AA Rx 2  1C 01 
   1033      6666.715 DT 00C83C44 Rx 1  00 
   1034      6680.250 DT 007800AA Rx 2  BF 01 
   1035      6681.244 DT 00788244 Rx 2  00 00 
   1036      6681.809 DT 00283C44 Rx 1  00 
   1037      6682.229 DT 00788245 Rx 1  00 
   1038      6683.291 DT 00788246 Rx 5  99 1F 99 AE B9 
   1039      6716.594 DT 00C83C44 Rx 1  00 
   1040      6731.279 DT 00788244 Rx 2  00 00 
   1041      6731.831 DT 00283C44 Rx 1  00 
   1042      6732.009 DT 002800AA Rx 2  C2 01 
   1043      6732.183 DT 00283C45 Rx 2  01 00 
   1044      6732.342 DT 00788245 Rx 1  00 
   1045      6733.320 DT 00788246 Rx 5  99 1F 99 AE B9 
   1046      6749.023 DT 008200AA Rx 3  73 02 00 
   1047      6766.670 DT 00C800AA Rx 2  1D 01 
   1048      6766.826 DT 00C83C44 Rx 1  00 
   1049      6780.312 DT 007800AA Rx 2  C0 01 
   1050      6781.314 DT 00788244 Rx 2  00 00 
   1051      6781.851 DT 00283C44 Rx 1  00 
   1052      6782.292 DT 00788245 Rx 1  00 
   1053      6783.364 DT 00788246 Rx 5  99 1F 99 AE B9 
   1054      6816.705 DT 00C83C44 Rx 1  00 
   1055      6831.350 DT 00788244 Rx 2  00 00 
   1056      6831.870 DT 00283C44 Rx 1  00 
   1057      6832.047 DT 002800AA Rx 2  C3 01 
   1058      6832.221 DT 00283C45 Rx 2  01 00 
   1059      6832.379 DT 00788245 Rx 1  00 
   1060      6833.401 DT 00788246 Rx 5  99 1F 99 AE B9 
   1061      6849.008 DT 008200AA Rx 3  74 02 00 
   1062      6866.779 DT 00C800AA Rx 2  1E 01 
   1063      6866.935 DT 00C83C44 Rx 1  00 
   1064      6880.397 DT 007800AA Rx 2  C1 01 
   1065      6881.395 DT 00788244 Rx 2  00 00 
   1066      6881.880 DT 00283C44 Rx 1  00 
   1067      6882.375 DT 00788245 Rx 1  00 
   1068      6883.443 DT 00788246 Rx 5  99 1F 99 AE B9 
   1069      6916.889 DT 00C83C44 Rx 1  00 
   1070      6931.435 DT 00788244 Rx 2  00 00 
   1071      6931.899 DT 00283C44 Rx 1  00 
   1072      6932.077 DT 002800AA Rx 2  C4 01 
   1073      6932.251 DT 00283C45 Rx 2  01 00 
   1074      6932.414 DT 00788245 Rx 1  00 
   1075      6933.476 DT 00788246 Rx 5  99 1F 99 AE B9 
   1076      6948.985 DT 008200AA Rx 3  75 02 00 
   1077      6966.902 DT 00C800AA Rx 2  1F 01 
   1078      6967.058 DT 00C83C44 Rx 1  00 
   1079      6980.462 DT 007800AA Rx 2  C2 01 
   1080      6981.460 DT 00788244 Rx 2  00 00 
   1081      6981.913 DT 00283C44 Rx 1  00 
   1082      6982.448 DT 00788245 Rx 1  00 
   1083      6983.512 DT 00788246 Rx 5  99 1F 99 AE B9 
   1084      7016.936 DT 00C83C44 Rx 1  00 
   1085      7031.548 DT 00788244 Rx 2  00 00 
   1086      7031.936 DT 00283C44 Rx 1  00 
   1087      7032.114 DT 002800AA Rx 2  C5 01 
   1088      7032.288 DT 00283C45 Rx 2  01 00 
   1089      7032.471 DT 00788245 Rx 1  00 
   1090      7033.537 DT 00788246 Rx 5  99 1F 99 AE B9 
   1091      7048.957 DT 008200AA Rx 3  76 02 00 
   1092      7067.000 DT 00C800AA Rx 2  20 01 
   1093      7067.156 DT 00C83C44 Rx 1  00 
   1094      7080.526 DT 007800AA Rx 2  C3 01 
   1095      7081.528 DT 00788244 Rx 2  00 00 
   1096      7081.936 DT 00283C44 Rx 1  00 
   1097      7082.512 DT 00788245 Rx 1  00 
   1098      7083.574 DT 00788246 Rx 5  99 1F 99 AE B9 
   1099      7117.038 DT 00C83C44 Rx 1  00 
   1100      7131.564 DT 00788244 Rx 2  00 00 
   1101      7131.966 DT 00283C44 Rx 1  00 
   1102      7132.142 DT 002800AA Rx 2  C6 01 
   1103      7132.316 DT 00283C45 Rx 2  01 00 
   1104      7132.544 DT 00283C46 Rx 5  64 15 00 00 08 
   1105      7132.703 DT 00788245 Rx 1  00 
   1106      7133.611 DT 00788246 Rx 5  99 1F 99 AE B9 
   1107      7148.940 DT 008200AA Rx 3  77 02 00 
   1108      7167.118 DT 00C800AA Rx 2  21 01 
   1109      7167.275 DT 00C83C44 Rx 1  00 
   1110      7180.601 DT 007800AA Rx 2  C4 01 
   1111      7181.599 DT 00788244 Rx 2  00 00 
   1112      7181.983 DT 00283C44 Rx 1  00 
   1113      7182.589 DT 00788245 Rx 1  00 
   1114      7183.649 DT 00788246 Rx 5  99 1F 99 AE B9 
   1115      7217.145 DT 00C83C44 Rx 1  00 
   1116      7231.639 DT 00788244 Rx 2  00 00 
   1117      7232.001 DT 00283C44 Rx 1  00 
   1118      7232.263 DT 002800AA Rx 2  C7 01 
   1119      7232.394 DT 00283C45 Rx 2  01 00 
   1120      7232.621 DT 00788245 Rx 1  00 
   1121      7233.681 DT 00788246 Rx 5  99 1F 99 AE B9 
   1122      7249.423 DT 008200AA Rx 3  78 02 00 
   1123      7267.213 DT 00C800AA Rx 2  22 01 
   1124      7267.369 DT 00C83C44 Rx 1  00 
   1125      7280.670 DT 007800AA Rx 2  C5 01 
   1126      7281.674 DT 00788244 Rx 2  00 00 
   1127      7282.026 DT 00283C44 Rx 1  00 
   1128      7282.655 DT 00788245 Rx 1  00 
   1129      7283.723 DT 00788246 Rx 5  99 1F 99 AE B9 
   1130      7317.238 DT 00C83C44 Rx 1  00 
   1131      7331.707 DT 00788244 Rx 2  00 00 
   1132      7332.043 DT 00283C44 Rx 1  00 
   1133      7332.222 DT 002800AA Rx 2  C8 01 
   1134      7332.396 DT 00283C45 Rx 2  01 00 
   1135      7332.684 DT 00788245 Rx 1  00 
   1136      7333.750 DT 00788246 Rx 5  99 1F 99 AE B9 
   1137      7349.403 DT 008200AA Rx 3  79 02 00 
   1138      7367.349 DT 00C800AA Rx 2  23 01 
   1139      7367.476 DT 00C83C44 Rx 1  00 
   1140      7380.750 DT 007800AA Rx 2  C6 01 
   1141      7381.749 DT 00788244 Rx 2  00 00 
   1142      7382.063 DT 00283C44 Rx 1  00 
   1143      7382.730 DT 00788245 Rx 1  00 
   1144      7383.800 DT 00788246 Rx 5  99 1F 99 AE B9 
   1145      7417.325 DT 00C83C44 Rx 1  00 
   1146      7431.786 DT 00788244 Rx 2  00 00 
   1147      7432.088 DT 00283C44 Rx 1  00 
   1148      7432.267 DT 002800AA Rx 2  C9 01 
   1149      7432.441 DT 00283C45 Rx 2  01 00 
   1150      7432.763 DT 00788245 Rx 1  00 
   1151      7433.829 DT 00788246 Rx 5  99 1F 99 AE B9 
   1152      7449.391 DT 008200AA Rx 3  7A 02 00 
   1153      7467.397 DT 00C800AA Rx 2  24 01 
   1154      7467.553 DT 00C83C44 Rx 1  00 
   1155      7480.818 DT 007800AA Rx 2  C7 01 
   1156      7481.820 DT 00788244 Rx 2  00 00 
   1157      7482.114 DT 00283C44 Rx 1  00 
   1158      7482.797 DT 00788245 Rx 1  00 
   1159      7483.865 DT 00788246 Rx 5  99 1F 99 AE B9 
   1160      7517.420 DT 00C83C44 Rx 1  00 
   1161      7531.859 DT 00788244 Rx 2  00 00 
   1162      7532.137 DT 00283C44 Rx 1  00 
   1163      7532.314 DT 002800AA Rx 2  CA 01 
   1164      7532.488 DT 00283C45 Rx 2  01 00 
   1165      7532.838 DT 00788245 Rx 1  00 
   1166      7533.906 DT 00788246 Rx 5  99 1F 99 AE B9 
   1167      7549.368 DT 008200AA Rx 3  7B 02 00 
   1168      7567.488 DT 00C800AA Rx 2  25 01 
   1169      7567.644 DT 00C83C44 Rx 1  00 
   1170      7580.891 DT 007800AA Rx 2  C8 01 
   1171      7581.891 DT 00788244 Rx 2  00 00 
   1172      7582.163 DT 00283C44 Rx 1  00 
   1173      7582.868 DT 00788245 Rx 1  00 
   1174      7583.934 DT 00788246 Rx 5  99 1F 99 AE B9 
   1175      7617.525 DT 00C83C44 Rx 1  00 
   1176      7631.918 DT 00788244 Rx 2  00 00 
   1177      7632.178 DT 00283C44 Rx 1  00 
   1178      7632.354 DT 002800AA Rx 2  CB 01 
   1179      7632.529 DT 00283C45 Rx 2  01 00 
   1180      7632.757 DT 00283C46 Rx 5  64 15 00 00 08 
   1181      7632.915 DT 00788245 Rx 1  00 
   1182      7633.963 DT 00788246 Rx 5  99 1F 99 AE B9 
   1183      7649.352 DT 008200AA Rx 3  7C 02 00 
   1184      7667.597 DT 00C800AA Rx 2  26 01 
   1185      7667.753 DT 00C83C44 Rx 1  00 
   1186      7681.953 DT 007800AA Rx 2  C9 01 
   1187      7682.191 DT 00283C44 Rx 1  00 
   1188      7682.963 DT 00788244 Rx 2  00 00 
   1189      7683.941 DT 00788245 Rx 1  00 
   1190      7685.005 DT 00788246 Rx 5  99 1F 99 AE B9 
   1191      7717.616 DT 00C83C44 Rx 1  00 
   1192      7732.207 DT 00283C44 Rx 1  00 
   1193      7732.385 DT 002800AA Rx 2  CC 01 
   1194      7732.559 DT 00283C45 Rx 2  01 00 
   1195      7733.008 DT 00788244 Rx 2  00 00 
   1196      7733.982 DT 00788245 Rx 1  00 
   1197      7735.044 DT 00788246 Rx 5  99 1F 99 AE B9 
   1198      7749.339 DT 008200AA Rx 3  7D 02 00 
   1199      7767.686 DT 00C800AA Rx 2  27 01 
   1200      7767.842 DT 00C83C44 Rx 1  00 
   1201      7782.036 DT 007800AA Rx 2  CA 01 
   1202      7782.222 DT 00283C44 Rx 1  00 
   1203      7783.042 DT 00788244 Rx 2  00 00 
   1204      7784.026 DT 00788245 Rx 1  00 
   1205      7785.080 DT 00788246 Rx 5  99 1F 99 AE B9 
   1206      7817.718 DT 00C83C44 Rx 1  00 
   1207      7832.238 DT 00283C44 Rx 1  00 
   1208      7832.418 DT 002800AA Rx 2  CD 01 
   1209      7832.592 DT 00283C45 Rx 2  01 00 
   1210      7833.083 DT 00788244 Rx 2  00 00 
   1211      7834.061 DT 00788245 Rx 1  00 
   1212      7835.122 DT 00788246 Rx 5  99 1F 99 AE B9 
   1213      7849.318 DT 008200AA Rx 3  7E 02 00 
   1214      7867.788 DT 00C800AA Rx 2  28 01 
   1215      7867.945 DT 00C83C44 Rx 1  00 
   1216      7882.105 DT 007800AA Rx 2  CB 01 
   1217      7882.261 DT 00283C44 Rx 1  00 
   1218      7883.115 DT 00788244 Rx 2  00 00 
   1219      7884.085 DT 00788245 Rx 1  00 
   1220      7885.149 DT 00788246 Rx 5  99 1F 99 AE B9 
   1221      7917.805 DT 00C83C44 Rx 1  00 
   1222      7932.279 DT 00283C44 Rx 1  00 
   1223      7932.574 DT 002800AA Rx 2  CE 01 
   1224      7932.671 DT 00283C45 Rx 2  01 00 
   1225      7933.144 DT 00788244 Rx 2  00 00 
   1226      7934.116 DT 00788245 Rx 1  00 
   1227      7935.185 DT 00788246 Rx 5  99 1F 99 AE B9 
   1228      7949.307 DT 008200AA Rx 3  7F 02 00 
   1229      7967.871 DT 00C800AA Rx 2  29 01 
   1230      7968.027 DT 00C83C44 Rx 1  00 
   1231      7982.170 DT 007800AA Rx 2  CC 01 
   1232      7982.326 DT 00283C44 Rx 1  00 
   1233      7983.178 DT 00788244 Rx 2  00 00 
   1234      7984.158 DT 00788245 Rx 1  00 
   1235      7985.220 DT 00788246 Rx 5  99 1F 99 AE B9 
   1236      8017.894 DT 00C83C44 Rx 1  00 
   1237      8032.324 DT 00283C44 Rx 1  00 
   1238      8032.500 DT 002800AA Rx 2  CF 01 
   1239      8032.674 DT 00283C45 Rx 2  01 00 
   1240      8033.222 DT 00788244 Rx 2  00 00 
   1241      8034.192 DT 00788245 Rx 1  00 
   1242      8035.259 DT 00788246 Rx 5  99 1F 99 AE B9 
   1243      8049.273 DT 008200AA Rx 3  80 02 00 
   1244      8067.949 DT 00C800AA Rx 2  2A 01 
   1245      8068.105 DT 00C83C44 Rx 1  00 
   1246      8082.234 DT 007800AA Rx 2  CD 01 
   1247      8082.390 DT 00283C44 Rx 1  00 
   1248      8083.239 DT 00788244 Rx 2  00 00 
   1249      8084.215 DT 00788245 Rx 1  00 
   1250      8085.277 DT 00788246 Rx 5  99 1F 99 AE B9 
   1251      8117.976 DT 00C83C44 Rx 1  00 
   1252      8132.351 DT 00283C44 Rx 1  00 
   1253      8132.531 DT 002800AA Rx 2  D0 01 
   1254      8132.706 DT 00283C45 Rx 2  01 00 
   1255      8132.934 DT 00283C46 Rx 5  64 15 00 00 08 
   1256      8133.278 DT 00788244 Rx 2  00 00 
   1257      8134.254 DT 00788245 Rx 1  00 
   1258      8135.318 DT 00788246 Rx 5  99 1F 99 AE B9 
   1259      8149.260 DT 008200AA Rx 3  81 02 00 
   1260      8168.042 DT 00C800AA Rx 2  2B 01 
   1261      8168.198 DT 00C83C44 Rx 1  00 
   1262      8182.313 DT 007800AA Rx 2  CE 01 
   1263      8183.373 DT 00788244 Rx 2  00 00 
   1264      8184.284 DT 00788245 Rx 1  00 
   1265      8185.350 DT 00788246 Rx 5  99 1F 99 AE B9 
   1266      8218.065 DT 00C83C44 Rx 1  00 
   1267      8232.384 DT 00283C44 Rx 1  00 
   1268      8232.562 DT 002800AA Rx 2  D1 01 
   1269      8232.736 DT 00283C45 Rx 2  01 00 
   1270      8233.345 DT 00788244 Rx 2  00 00 
   1271      8234.323 DT 00788245 Rx 1  00 
   1272      8235.389 DT 00788246 Rx 5  99 1F 99 AE B9 
   1273      8249.738 DT 008200AA Rx 3  82 02 00 
   1274      8268.131 DT 00C800AA Rx 2  2C 01 
   1275      8268.350 DT 00C83C44 Rx 1  00 
   1276      8282.377 DT 007800AA Rx 2  CF 01 
   1277      8282.533 DT 00283C44 Rx 1  00 
   1278      8283.381 DT 00788244 Rx 2  00 00 
   1279      8284.367 DT 00788245 Rx 1  00 
   1280      8285.427 DT 00788246 Rx 5  99 1F 99 AE B9 
   1281      8318.157 DT 00C83C44 Rx 1  00 
   1282      8332.417 DT 00283C44 Rx 1  00 
   1283      8332.593 DT 002800AA Rx 2  D2 01 
   1284      8332.767 DT 00283C45 Rx 2  01 00 
   1285      8333.417 DT 00788244 Rx 2  00 00 
   1286      8334.397 DT 00788245 Rx 1  00 
   1287      8335.455 DT 00788246 Rx 5  99 1F 99 AE B9 
   1288      8349.719 DT 008200AA Rx 3  83 02 00 
   1289      8368.221 DT 00C800AA Rx 2  2D 01 
   1290      8368.377 DT 00C83C44 Rx 1  00 
   1291      8382.444 DT 007800AA Rx 2  D0 01 
   1292      8382.600 DT 00283C44 Rx 1  00 
   1293      8383.441 DT 00788244 Rx 2  00 00 
   1294      8384.419 DT 00788245 Rx 1  00 
   1295      8385.479 DT 00788246 Rx 5  99 1F 99 AE B9 
   1296      8418.242 DT 00C83C44 Rx 1  00 
   1297      8432.448 DT 00283C44 Rx 1  00 
   1298      8432.626 DT 002800AA Rx 2  D3 01 
   1299      8432.800 DT 00283C45 Rx 2  01 00 
   1300      8433.484 DT 00788244 Rx 2  00 00 
   1301      8434.456 DT 00788245 Rx 1  00 
   1302      8435.522 DT 00788246 Rx 5  99 1F 99 AE B9 
   1303      8449.700 DT 008200AA Rx 3  84 02 00 
   1304      8468.304 DT 00C800AA Rx 2  2E 01 
   1305      8468.460 DT 00C83C44 Rx 1  00 
   1306      8482.467 DT 00283C44 Rx 1  00 
   1307      8482.647 DT 007800AA Rx 2  D1 01 
   1308      8483.516 DT 00788244 Rx 2  00 00 
   1309      8484.488 DT 00788245 Rx 1  00 
   1310      8485.552 DT 00788246 Rx 5  99 1F 99 AE B9 
   1311      8518.327 DT 00C83C44 Rx 1  00 
   1312      8532.478 DT 00283C44 Rx 1  00 
   1313      8532.654 DT 002800AA Rx 2  D4 01 
   1314      8532.828 DT 00283C45 Rx 2  01 00 
   1315      8533.553 DT 00788244 Rx 2  00 00 
   1316      8534.531 DT 00788245 Rx 1  00 
   1317      8535.599 DT 00788246 Rx 5  99 1F 99 AE B9 
   1318      8549.686 DT 008200AA Rx 3  85 02 00 
   1319      8568.396 DT 00C800AA Rx 2  2F 01 
   1320      8568.553 DT 00C83C44 Rx 1  00 
   1321      8582.501 DT 00283C44 Rx 1  00 
   1322      8582.677 DT 007800AA Rx 2  D2 01 
   1323      8583.610 DT 00788244 Rx 2  00 00 
   1324      8584.565 DT 00788245 Rx 1  00 
   1325      8585.633 DT 00788246 Rx 5  99 1F 99 AE B9 
   1326      8618.421 DT 00C83C44 Rx 1  00 
   1327      8632.510 DT 00283C44 Rx 1  00 
   1328      8632.752 DT 002800AA Rx 2  D5 01 
   1329      8632.883 DT 00283C45 Rx 2  01 00 
   1330      8633.089 DT 00283C46 Rx 5  64 15 00 00 08 
   1331      8633.635 DT 00788244 Rx 2  00 00 
   1332      8634.605 DT 00788245 Rx 1  00 
   1333      8635.675 DT 00788246 Rx 5  99 1F 99 AE B9 
   1334      8649.666 DT 008200AA Rx 3  86 02 00 
   1335      8668.491 DT 00C800AA Rx 2  30 01 
   1336      8668.647 DT 00C83C44 Rx 1  00 
   1337      8682.531 DT 00283C44 Rx 1  00 
   1338      8683.663 DT 007800AA Rx 2  D3 01 
   1339      8684.669 DT 00788244 Rx 2  00 00 
   1340      8685.647 DT 00788245 Rx 1  00 
   1341      8686.707 DT 00788246 Rx 5  99 1F 99 AE B9 
   1342      8718.516 DT 00C83C44 Rx 1  00 
   1343      8732.543 DT 00283C44 Rx 1  00 
   1344      8732.723 DT 002800AA Rx 2  D6 01 
   1345      8732.897 DT 00283C45 Rx 2  01 00 
   1346      8734.702 DT 00788244 Rx 2  00 00 
   1347      8735.676 DT 00788245 Rx 1  00 
   1348      8736.737 DT 00788246 Rx 5  99 1F 99 AE B9 
   1349      8749.651 DT 008200AA Rx 3  87 02 00 
   1350      8768.583 DT 00C800AA Rx 2  31 01 
   1351      8768.740 DT 00C83C44 Rx 1  00 
   1352      8782.556 DT 00283C44 Rx 1  00 
   1353      8783.720 DT 007800AA Rx 2  D4 01 
   1354      8784.722 DT 00788244 Rx 2  00 00 
   1355      8785.698 DT 00788245 Rx 1  00 
   1356      8786.768 DT 00788246 Rx 5  99 1F 99 AE B9 
   1357      8818.608 DT 00C83C44 Rx 1  00 
   1358      8832.570 DT 00283C44 Rx 1  00 
   1359      8832.746 DT 002800AA Rx 2  D7 01 
   1360      8832.920 DT 00283C45 Rx 2  01 00 
   1361      8834.772 DT 00788244 Rx 2  00 00 
   1362      8835.744 DT 00788245 Rx 1  00 
   1363      8836.807 DT 00788246 Rx 5  99 1F 99 AE B9 
   1364      8849.631 DT 008200AA Rx 3  88 02 00 
   1365      8868.668 DT 00C800AA Rx 2  32 01 
   1366      8868.824 DT 00C83C44 Rx 1  00 
   1367      8882.580 DT 00283C44 Rx 1  00 
   1368      8883.792 DT 007800AA Rx 2  D5 01 
   1369      8884.796 DT 00788244 Rx 2  00 00 
   1370      8885.778 DT 00788245 Rx 1  00 
   1371      8886.840 DT 00788246 Rx 5  99 1F 99 AE B9 
   1372      8918.689 DT 00C83C44 Rx 1  00 
   1373      8932.596 DT 00283C44 Rx 1  00 
   1374      8932.778 DT 002800AA Rx 2  D8 01 
   1375      8932.952 DT 00283C45 Rx 2  01 00 
   1376      8934.847 DT 00788244 Rx 2  00 00 
   1377      8935.819 DT 00788245 Rx 1  00 
   1378      8936.872 DT 00788246 Rx 5  99 1F 99 AE B9 
   1379      8949.618 DT 008200AA Rx 3  89 02 00 
   1380      8968.751 DT 00C800AA Rx 2  33 01 
   1381      8968.907 DT 00C83C44 Rx 1  00 
   1382      8982.617 DT 00283C44 Rx 1  00 
   1383      8983.867 DT 007800AA Rx 2  D6 01 
   1384      8984.932 DT 00788244 Rx 2  00 00 
   1385      8985.847 DT 00788245 Rx 1  00 
   1386      8986.909 DT 00788246 Rx 5  99 1F 99 AE B9 
   1387      9018.782 DT 00C83C44 Rx 1  00 
   1388      9032.633 DT 00283C44 Rx 1  00 
   1389      9032.809 DT 002800AA Rx 2  D9 01 
   1390      9032.983 DT 00283C45 Rx 2  01 00 
   1391      9034.920 DT 00788244 Rx 2  00 00 
   1392      9035.886 DT 00788245 Rx 1  00 
   1393      9036.949 DT 00788246 Rx 5  99 1F 99 AE B9 
   1394      9049.584 DT 008200AA Rx 3  8A 02 00 
   1395      9068.835 DT 00C800AA Rx 2  34 01 
   1396      9068.991 DT 00C83C44 Rx 1  00 
   1397      9082.639 DT 00283C44 Rx 1  00 
   1398      9083.933 DT 007800AA Rx 2  D7 01 
   1399      9084.939 DT 00788244 Rx 2  00 00 
   1400      9085.915 DT 00788245 Rx 1  00 
   1401      9086.983 DT 00788246 Rx 5  99 1F 99 AE B9 
   1402      9118.855 DT 00C83C44 Rx 1  00 
   1403      9132.643 DT 00283C44 Rx 1  00 
   1404      9132.821 DT 002800AA Rx 2  DA 01 
   1405      9133.002 DT 00283C45 Rx 2  01 00 
   1406      9133.223 DT 00283C46 Rx 5  64 1D 00 00 08 
   1407      9134.982 DT 00788244 Rx 2  00 00 
   1408      9135.956 DT 00788245 Rx 1  00 
   1409      9137.017 DT 00788246 Rx 5  99 1F 99 AE B9 
   1410      9149.569 DT 008200AA Rx 3  8B 02 00 
   1411      9168.918 DT 00C800AA Rx 2  35 01 
   1412      9169.074 DT 00C83C44 Rx 1  00 
   1413      9182.700 DT 00283C44 Rx 1  00 
   1414      9184.014 DT 007800AA Rx 2  D8 01 
   1415      9185.016 DT 00788244 Rx 2  00 00 
   1416      9185.990 DT 00788245 Rx 1  00 
   1417      9187.058 DT 00788246 Rx 5  99 1F 99 AE B9 
   1418      9218.951 DT 00C83C44 Rx 1  00 
   1419      9232.720 DT 00283C44 Rx 1  00 
   1420      9232.898 DT 002800AA Rx 2  DB 01 
   1421      9233.072 DT 00283C45 Rx 2  01 00 
   1422      9235.062 DT 00788244 Rx 2  00 00 
   1423      9236.030 DT 00788245 Rx 1  00 
   1424      9237.095 DT 00788246 Rx 5  99 1F 99 AE B9 
   1425      9250.052 DT 008200AA Rx 3  8C 02 00 
   1426      9269.014 DT 00C800AA Rx 2  36 01 
   1427      9269.170 DT 00C83C44 Rx 1  00 
   1428      9282.745 DT 00283C44 Rx 1  00 
   1429      9284.094 DT 007800AA Rx 2  D9 01 
   1430      9285.096 DT 00788244 Rx 2  00 00 
   1431      9286.078 DT 00788245 Rx 1  00 
   1432      9287.144 DT 00788246 Rx 5  99 1F 99 AE B9 
   1433      9319.037 DT 00C83C44 Rx 1  00 
   1434      9332.758 DT 00283C44 Rx 1  00 
   1435      9333.028 DT 002800AA Rx 2  DC 01 
   1436      9333.153 DT 00283C45 Rx 2  01 00 
   1437      9335.136 DT 00788244 Rx 2  00 00 
   1438      9336.107 DT 00788245 Rx 1  00 
   1439      9337.174 DT 00788246 Rx 5  99 1F 99 AE B9 
   1440      9350.034 DT 008200AA Rx 3  8D 02 00 
   1441      9369.114 DT 00C800AA Rx 2  37 01 
   1442      9369.270 DT 00C83C44 Rx 1  00 
   1443      9382.779 DT 00283C44 Rx 1  00 
   1444      9384.168 DT 007800AA Rx 2  DA 01 
   1445      9385.172 DT 00788244 Rx 2  00 00 
   1446      9386.152 DT 00788245 Rx 1  00 
   1447      9387.216 DT 00788246 Rx 5  99 1F 99 AE B9 
   1448      9419.163 DT 00C83C44 Rx 1  00 
   1449      9432.796 DT 00283C44 Rx 1  00 
   1450      9432.974 DT 002800AA Rx 2  DD 01 
   1451      9433.149 DT 00283C45 Rx 2  01 00 
   1452      9435.211 DT 00788244 Rx 2  00 00 
   1453      9436.191 DT 00788245 Rx 1  00 
   1454      9437.250 DT 00788246 Rx 5  99 1F 99 AE B9 
   1455      9450.020 DT 008200AA Rx 3  8E 02 00 
   1456      9469.251 DT 00C800AA Rx 2  38 01 
   1457      9469.407 DT 00C83C44 Rx 1  00 
   1458      9482.813 DT 00283C44 Rx 1  00 
   1459      9484.239 DT 007800AA Rx 2  DB 01 
   1460      9485.243 DT 00788244 Rx 2  00 00 
   1461      9486.227 DT 00788245 Rx 1  00 
   1462      9487.289 DT 00788246 Rx 5  99 1F 99 AE B9 
   1463      9519.274 DT 00C83C44 Rx 1  00 
   1464      9532.823 DT 00283C44 Rx 1  00 
   1465      9533.001 DT 002800AA Rx 2  DE 01 
   1466      9533.175 DT 00283C45 Rx 2  01 00 
   1467      9535.292 DT 00788244 Rx 2  00 00 
   1468      9536.258 DT 00788245 Rx 1  00 
   1469      9537.323 DT 00788246 Rx 5  99 1F 99 AE B9 
   1470      9550.073 DT 008200AA Rx 3  8F 02 00 
   1471      9569.341 DT 00C800AA Rx 2  39 01 
   1472      9569.498 DT 00C83C44 Rx 1  00 
   1473      9582.848 DT 00283C44 Rx 1  00 
   1474      9584.311 DT 007800AA Rx 2  DC 01 
   1475      9585.319 DT 00788244 Rx 2  00 00 
   1476      9586.287 DT 00788245 Rx 1  00 
   1477      9587.359 DT 00788246 Rx 5  99 1F 99 AE B9 
   1478      9619.370 DT 00C83C44 Rx 1  00 
   1479      9632.855 DT 00283C44 Rx 1  00 
   1480      9633.033 DT 002800AA Rx 2  DF 01 
   1481      9633.208 DT 00283C45 Rx 2  01 00 
   1482      9633.436 DT 00283C46 Rx 5  64 1D 00 00 08 
   1483      9635.362 DT 00788244 Rx 2  00 00 
   1484      9636.326 DT 00788245 Rx 1  00 
   1485      9637.390 DT 00788246 Rx 5  99 1F 99 AE B9 
   1486      9649.984 DT 008200AA Rx 3  90 02 00 
   1487      9669.448 DT 00C800AA Rx 2  3A 01 
   1488      9669.604 DT 00C83C44 Rx 1  00 
   1489      9682.877 DT 00283C44 Rx 1  00 
   1490      9685.386 DT 007800AA Rx 2  DD 01 
   1491      9686.392 DT 00788244 Rx 2  00 00 
   1492      9687.372 DT 00788245 Rx 1  00 
   1493      9688.438 DT 00788246 Rx 5  99 1F 99 AE B9 
   1494      9719.483 DT 00C83C44 Rx 1  00 
   1495      9732.894 DT 00283C44 Rx 1  00 
   1496      9733.072 DT 002800AA Rx 2  E0 01 
   1497      9733.246 DT 00283C45 Rx 2  01 00 
   1498      9736.419 DT 00788244 Rx 2  00 00 
   1499      9737.394 DT 00788245 Rx 1  00 
   1500      9738.463 DT 00788246 Rx 5  99 1F 99 AE B9 
   1501      9749.964 DT 008200AA Rx 3  91 02 00 
   1502      9769.551 DT 00C800AA Rx 2  3B 01 
   1503      9769.707 DT 00C83C44 Rx 1  00 
   1504      9782.915 DT 00283C44 Rx 1  00 
   1505      9785.452 DT 007800AA Rx 2  DE 01 
   1506      9786.454 DT 00788244 Rx 2  00 00 
   1507      9787.435 DT 00788245 Rx 1  00 
   1508      9788.499 DT 00788246 Rx 5  99 1F 99 AE B9 
   1509      9819.577 DT 00C83C44 Rx 1  00 
   1510      9832.939 DT 00283C44 Rx 1  00 
   1511      9833.117 DT 002800AA Rx 2  E1 01 
   1512      9833.291 DT 00283C45 Rx 2  01 00 
   1513      9836.493 DT 00788244 Rx 2  00 00 
   1514      9837.464 DT 00788245 Rx 1  00 
   1515      9838.532 DT 00788246 Rx 5  99 1F 99 AE B9 
   1516      9849.947 DT 008200AA Rx 3  92 02 00 
   1517      9869.657 DT 00C800AA Rx 2  3C 01 
   1518      9869.813 DT 00C83C44 Rx 1  00 
   1519      9882.959 DT 00283C44 Rx 1  00 
   1520      9885.531 DT 007800AA Rx 2  DF 01 
   1521      9886.529 DT 00788244 Rx 2  00 00 
   1522      9887.511 DT 00788245 Rx 1  00 
   1523      9888.569 DT 00788246 Rx 5  99 1F 99 AE B9 
   1524      9919.678 DT 00C83C44 Rx 1  00 
   1525      9932.967 DT 00283C44 Rx 1  00 
   1526      9933.145 DT 002800AA Rx 2  E2 01 
   1527      9933.319 DT 00283C45 Rx 2  01 00 
   1528      9936.572 DT 00788244 Rx 2  00 00 
   1529      9937.543 DT 00788245 Rx 1  00 
   1530      9938.611 DT 00788246 Rx 5  99 1F 99 AE B9 
   1531      9949.931 DT 008200AA Rx 3  93 02 00 
   1532      9969.741 DT 00C800AA Rx 2  3D 01 
   1533      9969.898 DT 00C83C44 Rx 1  00 
   1534      9982.998 DT 00283C44 Rx 1  00 
   1535      9985.607 DT 007800AA Rx 2  E0 01 
   1536      9986.611 DT 00788244 Rx 2  00 00 
   1537      9987.589 DT 00788245 Rx 1  00 
   1538      9988.659 DT 00788246 Rx 5  99 1F 99 AE B9 
   1539     10019.770 DT 00C83C44 Rx 1  00 
   1540     10033.019 DT 00283C44 Rx 1  00 
   1541     10033.196 DT 002800AA Rx 2  E3 01 
   1542     10033.474 DT 00283C45 Rx 2  01 00 
   1543     10036.649 DT 00788244 Rx 2  00 00 
   1544     10037.621 DT 00788245 Rx 1  00 
   1545     10038.745 DT 00788246 Rx 5  99 1F 99 AE B9 
   1546     10049.901 DT 008200AA Rx 3  94 02 00 
   1547     10069.827 DT 00C800AA Rx 2  3E 01 
   1548     10069.983 DT 00C83C44 Rx 1  00 
   1549     10083.028 DT 00283C44 Rx 1  00 
   1550     10085.663 DT 007800AA Rx 2  E1 01 
   1551     10086.673 DT 00788244 Rx 2  00 00 
   1552     10087.649 DT 00788245 Rx 1  00 
   1553     10088.701 DT 00788246 Rx 5  99 1F 99 AE B9 
   1554     10119.854 DT 00C83C44 Rx 1  00 
   1555     10133.041 DT 00283C44 Rx 1  00 
   1556     10133.217 DT 002800AA Rx 2  E4 01 
   1557     10133.392 DT 00283C45 Rx 2  01 00 
   1558     10133.620 DT 00283C46 Rx 5  64 1D 00 00 08 
   1559     10136.708 DT 00788244 Rx 2  00 00 
   1560     10137.675 DT 00788245 Rx 1  00 
   1561     10138.737 DT 00788246 Rx 5  99 1F 99 AE B9 
   1562     10149.883 DT 008200AA Rx 3  95 02 00 
   1563     10169.926 DT 00C800AA Rx 2  3F 01 
   1564     10170.082 DT 00C83C44 Rx 1  00 
   1565     10183.054 DT 00283C44 Rx 1  00 
   1566     10185.740 DT 007800AA Rx 2  E2 01 
   1567     10186.744 DT 00788244 Rx 2  00 00 
   1568     10187.716 DT 00788245 Rx 1  00 
   1569     10188.780 DT 00788246 Rx 5  99 1F 99 AE B9 
   1570     10219.954 DT 00C83C44 Rx 1  00 
   1571     10233.092 DT 00283C44 Rx 1  00 
   1572     10233.268 DT 002800AA Rx 2  E5 01 
   1573     10233.442 DT 00283C45 Rx 2  01 00 
   1574     10236.780 DT 00788244 Rx 2  00 00 
   1575     10237.751 DT 00788245 Rx 1  00 
   1576     10238.815 DT 00788246 Rx 5  99 1F 99 AE B9 
   1577     10250.368 DT 008200AA Rx 3  96 02 00 
   1578     10270.024 DT 00C800AA Rx 2  40 01 
   1579     10270.180 DT 00C83C44 Rx 1  00 
   1580     10283.115 DT 00283C44 Rx 1  00 
   1581     10285.806 DT 007800AA Rx 2  E3 01 
   1582     10286.814 DT 00788244 Rx 2  00 00 
   1583     10287.792 DT 00788245 Rx 1  00 
   1584     10288.854 DT 00788246 Rx 5  99 1F 99 AE B9 
   1585     10320.043 DT 00C83C44 Rx 1  00 
   1586     10333.126 DT 00283C44 Rx 1  00 
   1587     10333.305 DT 002800AA Rx 2  E6 01 
   1588     10333.479 DT 00283C45 Rx 2  01 00 
   1589     10336.849 DT 00788244 Rx 2  00 00 
   1590     10337.818 DT 00788245 Rx 1  00 
   1591     10338.884 DT 00788246 Rx 5  99 1F 99 AE B9 
   1592     10350.348 DT 008200AA Rx 3  97 02 00 
   1593     10370.115 DT 00C800AA Rx 2  41 01 
   1594     10370.271 DT 00C83C44 Rx 1  00 
   1595     10383.147 DT 00283C44 Rx 1  00 
   1596     10385.879 DT 007800AA Rx 2  E4 01 
   1597     10386.885 DT 00788244 Rx 2  00 00 
   1598     10387.859 DT 00788245 Rx 1  00 
   1599     10388.925 DT 00788246 Rx 5  99 1F 99 AE B9 
   1600     10420.138 DT 00C83C44 Rx 1  00 
   1601     10433.167 DT 00283C44 Rx 1  00 
   1602     10433.343 DT 002800AA Rx 2  E7 01 
   1603     10433.517 DT 00283C45 Rx 2  01 00 
   1604     10436.927 DT 00788244 Rx 2  00 00 
   1605     10437.900 DT 00788245 Rx 1  00 
   1606     10438.965 DT 00788246 Rx 5  99 1F 99 AE B9 
   1607     10450.333 DT 008200AA Rx 3  98 02 00 
   1608     10470.197 DT 00C800AA Rx 2  42 01 
   1609     10470.353 DT 00C83C44 Rx 1  00 
   1610     10483.192 DT 00283C44 Rx 1  00 
   1611     10485.963 DT 007800AA Rx 2  E5 01 
   1612     10486.971 DT 00788244 Rx 2  00 00 
   1613     10487.943 DT 00788245 Rx 1  00 
   1614     10489.009 DT 00788246 Rx 5  99 1F 99 AE B9 
   1615     10520.230 DT 00C83C44 Rx 1  00 
   1616     10533.209 DT 00283C44 Rx 1  00 
   1617     10533.388 DT 002800AA Rx 2  E8 01 
   1618     10533.562 DT 00283C45 Rx 2  01 00 
   1619     10537.020 DT 00788244 Rx 2  00 00 
   1620     10537.986 DT 00788245 Rx 1  00 
   1621     10539.046 DT 00788246 Rx 5  99 1F 99 AE B9 
   1622     10550.314 DT 008200AA Rx 3  99 02 00 
   1623     10570.298 DT 00C800AA Rx 2  43 01 
   1624     10570.454 DT 00C83C44 Rx 1  00 
   1625     10583.229 DT 00283C44 Rx 1  00 
   1626     10586.036 DT 007800AA Rx 2  E6 01 
   1627     10587.046 DT 00788244 Rx 2  00 00 
   1628     10588.030 DT 00788245 Rx 1  00 
   1629     10589.090 DT 00788246 Rx 5  99 1F 99 AE B9 
   1630     10620.321 DT 00C83C44 Rx 1  00 
   1631     10633.252 DT 00283C44 Rx 1  00 
   1632     10633.430 DT 002800AA Rx 2  E9 01 
   1633     10633.605 DT 00283C45 Rx 2  01 00 
   1634     10633.833 DT 00283C46 Rx 5  64 1D 00 00 08 
   1635     10637.095 DT 00788244 Rx 2  00 00 
   1636     10638.066 DT 00788245 Rx 1  00 
   1637     10639.130 DT 00788246 Rx 5  99 1F 99 AE B9 
   1638     10650.298 DT 008200AA Rx 3  9A 02 00 
   1639     10670.395 DT 00C800AA Rx 2  44 01 
   1640     10670.551 DT 00C83C44 Rx 1  00 
   1641     10683.279 DT 00283C44 Rx 1  00 
   1642     10687.125 DT 007800AA Rx 2  E7 01 
   1643     10688.125 DT 00788244 Rx 2  00 00 
   1644     10689.101 DT 00788245 Rx 1  00 
   1645     10690.164 DT 00788246 Rx 5  99 1F 99 AE B9 
   1646     10720.423 DT 00C83C44 Rx 1  00 
   1647     10733.289 DT 00283C44 Rx 1  00 
   1648     10733.465 DT 002800AA Rx 2  EA 01 
   1649     10733.651 DT 00283C45 Rx 2  01 00 
   1650     10738.164 DT 00788244 Rx 2  00 00 
   1651     10739.135 DT 00788245 Rx 1  00 
   1652     10740.201 DT 00788246 Rx 5  99 1F 99 AE B9 
   1653     10750.279 DT 008200AA Rx 3  9B 02 00 
   1654     10770.497 DT 00C800AA Rx 2  45 01 
   1655     10770.654 DT 00C83C44 Rx 1  00 
   1656     10783.306 DT 00283C44 Rx 1  00 
   1657     10787.197 DT 007800AA Rx 2  E8 01 
   1658     10788.197 DT 00788244 Rx 2  00 00 
   1659     10789.175 DT 00788245 Rx 1  00 
   1660     10790.243 DT 00788246 Rx 5  99 1F 99 AE B9 
   1661     10820.532 DT 00C83C44 Rx 1  00 
   1662     10833.315 DT 00283C44 Rx 1  00 
   1663     10833.494 DT 002800AA Rx 2  EB 01 
   1664     10833.668 DT 00283C45 Rx 2  01 00 
   1665     10838.239 DT 00788244 Rx 2  00 00 
   1666     10839.213 DT 00788245 Rx 1  00 
   1667     10840.281 DT 00788246 Rx 5  99 1F 99 AE B9 
   1668     10850.259 DT 008200AA Rx 3  9C 02 00 
   1669     10870.600 DT 00C800AA Rx 2  46 01 
   1670     10870.756 DT 00C83C44 Rx 1  00 
   1671     10883.326 DT 00283C44 Rx 1  00 
   1672     10887.272 DT 007800AA Rx 2  E9 01 
   1673     10888.280 DT 00788244 Rx 2  00 00 
   1674     10889.254 DT 00788245 Rx 1  00 
   1675     10890.317 DT 00788246 Rx 5  99 1F 99 AE B9 
   1676     10920.623 DT 00C83C44 Rx 1  00 
   1677     10933.336 DT 00283C44 Rx 1  00 
   1678     10933.512 DT 002800AA Rx 2  EC 01 
   1679     10933.686 DT 00283C45 Rx 2  01 00 
   1680     10938.341 DT 00788244 Rx 2  00 00 
   1681     10939.294 DT 00788245 Rx 1  00 
   1682     10940.362 DT 00788246 Rx 5  99 1F 99 AE B9 
   1683     10950.248 DT 008200AA Rx 3  9D 02 00 
   1684     10970.684 DT 00C800AA Rx 2  47 01 
   1685     10970.840 DT 00C83C44 Rx 1  00 
   1686     10983.384 DT 00283C44 Rx 1  00 
   1687     10987.352 DT 007800AA Rx 2  EA 01 
   1688     10988.354 DT 00788244 Rx 2  00 00 
   1689     10989.332 DT 00788245 Rx 1  00 
   1690     10990.399 DT 00788246 Rx 5  99 1F 99 AE B9 
   1691     11020.707 DT 00C83C44 Rx 1  00 
   1692     11033.374 DT 00283C44 Rx 1  00 
   1693     11033.550 DT 002800AA Rx 2  ED 01 
   1694     11033.724 DT 00283C45 Rx 2  01 00 
   1695     11038.402 DT 00788244 Rx 2  00 00 
   1696     11039.357 DT 00788245 Rx 1  00 
   1697     11040.423 DT 00788246 Rx 5  99 1F 99 AE B9 
   1698     11050.213 DT 008200AA Rx 3  9E 02 00 
   1699     11070.762 DT 00C800AA Rx 2  48 01 
   1700     11070.918 DT 00C83C44 Rx 1  00 
   1701     11083.376 DT 00283C44 Rx 1  00 
   1702     11087.416 DT 007800AA Rx 2  EB 01 
   1703     11088.420 DT 00788244 Rx 2  00 00 
   1704     11089.396 DT 00788245 Rx 1  00 
   1705     11090.469 DT 00788246 Rx 5  99 1F 99 AE B9 
   1706     11120.784 DT 00C83C44 Rx 1  00 
   1707     11133.392 DT 00283C44 Rx 1  00 
   1708     11133.570 DT 002800AA Rx 2  EE 01 
   1709     11133.744 DT 00283C45 Rx 2  01 00 
   1710     11133.972 DT 00283C46 Rx 5  64 1D 00 00 08 
   1711     11138.466 DT 00788244 Rx 2  00 00 
   1712     11139.432 DT 00788245 Rx 1  00 
   1713     11140.510 DT 00788246 Rx 5  99 1F 99 AE B9 
   1714     11150.198 DT 008200AA Rx 3  9F 02 00 
   1715     11170.851 DT 00C800AA Rx 2  49 01 
   1716     11171.007 DT 00C83C44 Rx 1  00 
   1717     11183.401 DT 00283C44 Rx 1  00 
   1718     11187.475 DT 007800AA Rx 2  EC 01 
   1719     11188.495 DT 00788244 Rx 2  00 00 
   1720     11189.467 DT 00788245 Rx 1  00 
   1721     11190.532 DT 00788246 Rx 5  99 1F 99 AE B9 
   1722     11221.083 DT 00C83C44 Rx 1  00 
   1723     11233.413 DT 00283C44 Rx 1  00 
   1724     11233.591 DT 002800AA Rx 2  EF 01 
   1725     11233.765 DT 00283C45 Rx 2  01 00 
   1726     11238.530 DT 00788244 Rx 2  00 00 
   1727     11239.498 DT 00788245 Rx 1  00 
   1728     11240.562 DT 00788246 Rx 5  99 1F 99 AE B9 
   1729     11250.685 DT 008200AA Rx 3  A0 02 00 
   1730     11270.937 DT 00C800AA Rx 2  4A 01 
   1731     11271.093 DT 00C83C44 Rx 1  00 
   1732     11283.436 DT 00283C44 Rx 1  00 
   1733     11287.551 DT 007800AA Rx 2  ED 01 
   1734     11288.553 DT 00788244 Rx 2  00 00 
   1735     11289.529 DT 00788245 Rx 1  00 
   1736     11290.592 DT 00788246 Rx 5  99 1F 99 AE B9 
   1737     11320.966 DT 00C83C44 Rx 1  00 
   1738     11333.451 DT 00283C44 Rx 1  00 
   1739     11333.631 DT 002800AA Rx 2  F0 01 
   1740     11333.805 DT 00283C45 Rx 2  01 00 
   1741     11338.587 DT 00788244 Rx 2  00 00 
   1742     11339.559 DT 00788245 Rx 1  00 
   1743     11340.625 DT 00788246 Rx 5  99 1F 99 AE B9 
   1744     11350.665 DT 008200AA Rx 3  A1 02 00 
   1745     11371.029 DT 00C800AA Rx 2  4B 01 
   1746     11371.185 DT 00C83C44 Rx 1  00 
   1747     11383.472 DT 00283C44 Rx 1  00 
   1748     11387.621 DT 007800AA Rx 2  EE 01 
   1749     11388.628 DT 00788244 Rx 2  00 00 
   1750     11389.608 DT 00788245 Rx 1  00 
   1751     11390.669 DT 00788246 Rx 5  99 1F 99 AE B9 
   1752     11421.054 DT 00C83C44 Rx 1  00 
   1753     11433.490 DT 00283C44 Rx 1  00 
   1754     11433.666 DT 002800AA Rx 2  F1 01 
   1755     11433.890 DT 00283C45 Rx 2  01 00 
   1756     11438.663 DT 00788244 Rx 2  00 00 
   1757     11439.640 DT 00788245 Rx 1  00 
   1758     11440.702 DT 00788246 Rx 5  99 1F 99 AE B9 
   1759     11450.646 DT 008200AA Rx 3  A2 02 00 
   1760     11471.124 DT 00C800AA Rx 2  4C 01 
   1761     11471.384 DT 00C83C44 Rx 1  00 
   1762     11483.503 DT 00283C44 Rx 1  00 
   1763     11487.694 DT 007800AA Rx 2  EF 01 
   1764     11488.698 DT 00788244 Rx 2  00 00 
   1765     11489.674 DT 00788245 Rx 1  00 
   1766     11490.741 DT 00788246 Rx 5  99 1F 99 AE B9 
   1767     11521.143 DT 00C83C44 Rx 1  00 
   1768     11533.528 DT 00283C44 Rx 1  00 
   1769     11533.704 DT 002800AA Rx 2  F2 01 
   1770     11533.878 DT 00283C45 Rx 2  01 00 
   1771     11538.734 DT 00788244 Rx 2  00 00 
   1772     11539.708 DT 00788245 Rx 1  00 
   1773     11540.770 DT 00788246 Rx 5  99 1F 99 AE B9 
   1774     11550.630 DT 008200AA Rx 3  A3 02 00 
   1775     11571.212 DT 00C800AA Rx 2  4D 01 
   1776     11571.368 DT 00C83C44 Rx 1  00 
   1777     11583.547 DT 00283C44 Rx 1  00 
   1778     11587.760 DT 007800AA Rx 2  F0 01 
   1779     11588.764 DT 00788244 Rx 2  00 00 
   1780     11589.744 DT 00788245 Rx 1  00 
   1781     11590.805 DT 00788246 Rx 5  99 1F 99 AE B9 
   1782     11621.237 DT 00C83C44 Rx 1  00 
   1783     11633.562 DT 00283C44 Rx 1  00 
   1784     11633.739 DT 002800AA Rx 2  F3 01 
   1785     11633.913 DT 00283C45 Rx 2  01 00 
   1786     11634.141 DT 00283C46 Rx 5  64 1D 00 00 08 
   1787     11638.814 DT 00788244 Rx 2  00 00 
   1788     11639.782 DT 00788245 Rx 1  00 
   1789     11640.850 DT 00788246 Rx 5  99 1F 99 AE B9 
   1790     11650.613 DT 008200AA Rx 3  A4 02 00 
   1791     11671.377 DT 00C800AA Rx 2  4E 01 
   1792     11671.508 DT 00C83C44 Rx 1  00 
   1793     11683.661 DT 00283C44 Rx 1  00 
   1794     11688.831 DT 007800AA Rx 2  F1 01 
   1795     11689.843 DT 00788244 Rx 2  00 00 
   1796     11690.820 DT 00788245 Rx 1  00 
   1797     11691.890 DT 00788246 Rx 5  99 1F 99 AE B9 
   1798     11721.324 DT 00C83C44 Rx 1  00 
   1799     11733.593 DT 00283C44 Rx 1  00 
   1800     11733.769 DT 002800AA Rx 2  F4 01 
   1801     11733.943 DT 00283C45 Rx 2  01 00 
   1802     11739.886 DT 00788244 Rx 2  00 00 
   1803     11740.855 DT 00788245 Rx 1  00 
   1804     11741.927 DT 00788246 Rx 5  99 1F 99 AE B9 
   1805     11750.597 DT 008200AA Rx 3  A5 02 00 
   1806     11771.399 DT 00C800AA Rx 2  4F 01 
   1807     11771.555 DT 00C83C44 Rx 1  00 
   1808     11783.608 DT 00283C44 Rx 1  00 
   1809     11788.907 DT 007800AA Rx 2  F2 01 
   1810     11789.919 DT 00788244 Rx 2  00 00 
   1811     11790.892 DT 00788245 Rx 1  00 
   1812     11791.952 DT 00788246 Rx 5  99 1F 99 AE B9 
   1813     11821.430 DT 00C83C44 Rx 1  00 
   1814     11833.611 DT 00283C44 Rx 1  00 
   1815     11833.787 DT 002800AA Rx 2  F5 01 
   1816     11833.961 DT 00283C45 Rx 2  01 00 
   1817     11839.955 DT 00788244 Rx 2  00 00 
   1818     11840.929 DT 00788245 Rx 1  00 
   1819     11841.989 DT 00788246 Rx 5  99 1F 99 AE B9 
   1820     11850.575 DT 008200AA Rx 3  A6 02 00 
   1821     11871.495 DT 00C800AA Rx 2  50 01 
   1822     11871.652 DT 00C83C44 Rx 1  00 
   1823     11883.626 DT 00283C44 Rx 1  00 
   1824     11888.979 DT 007800AA Rx 2  F3 01 
   1825     11889.984 DT 00788244 Rx 2  00 00 
   1826     11890.959 DT 00788245 Rx 1  00 
   1827     11892.023 DT 00788246 Rx 5  99 1F 99 AE B9 
   1828     11921.526 DT 00C83C44 Rx 1  00 
   1829     11933.638 DT 00283C44 Rx 1  00 
   1830     11933.814 DT 002800AA Rx 2  F6 01 
   1831     11933.988 DT 00283C45 Rx 2  01 00 
   1832     11940.016 DT 00788244 Rx 2  00 00 
   1833     11940.988 DT 00788245 Rx 1  00 
   1834     11942.056 DT 00788246 Rx 5  99 1F 99 AE B9 
   1835     11950.562 DT 008200AA Rx 3  A7 02 00 
   1836     11971.584 DT 00C800AA Rx 2  51 01 
   1837     11971.740 DT 00C83C44 Rx 1  00 
   1838     11983.651 DT 00283C44 Rx 1  00 
   1839     11989.040 DT 007800AA Rx 2  F4 01 
   1840     11990.050 DT 00788244 Rx 2  00 00 
   1841     11991.029 DT 00788245 Rx 1  00 
   1842     11992.091 DT 00788246 Rx 5  99 1F 99 AE B9 
   1843     12021.617 DT 00C83C44 Rx 1  00 
   1844     12033.666 DT 00283C44 Rx 1  00 
   1845     12033.844 DT 002800AA Rx 2  F7 01 
   1846     12034.018 DT 00283C45 Rx 2  01 00 
   1847     12040.071 DT 00788244 Rx 2  00 00 
   1848     12041.045 DT 00788245 Rx 1  00 
   1849     12042.109 DT 00788246 Rx 5  99 1F 99 AE B9 
   1850     12050.527 DT 008200AA Rx 3  A8 02 00 
   1851     12071.670 DT 00C800AA Rx 2  52 01 
   1852     12071.826 DT 00C83C44 Rx 1  00 
   1853     12083.668 DT 00283C44 Rx 1  00 
   1854     12089.100 DT 007800AA Rx 2  F5 01 
   1855     12090.106 DT 00788244 Rx 2  00 00 
   1856     12091.085 DT 00788245 Rx 1  00 
   1857     12092.151 DT 00788246 Rx 5  99 1F 99 AE B9 
   1858     12121.694 DT 00C83C44 Rx 1  00 
   1859     12133.678 DT 00283C44 Rx 1  00 
   1860     12133.862 DT 002800AA Rx 2  F8 01 
   1861     12134.131 DT 00283C45 Rx 2  01 00 
   1862     12134.264 DT 00283C46 Rx 5  64 1D 00 00 08 
   1863     12140.156 DT 00788244 Rx 2  00 00 
   1864     12141.130 DT 00788245 Rx 1  00 
   1865     12142.194 DT 00788246 Rx 5  99 1F 99 AE B9 
   1866     12150.514 DT 008200AA Rx 3  A9 02 00 
   1867     12171.765 DT 00C800AA Rx 2  53 01 
   1868     12171.921 DT 00C83C44 Rx 1  00 
   1869     12183.709 DT 00283C44 Rx 1  00 
   1870     12189.187 DT 007800AA Rx 2  F6 01 
   1871     12190.195 DT 00788244 Rx 2  00 00 
   1872     12191.168 DT 00788245 Rx 1  00 
   1873     12192.234 DT 00788246 Rx 5  99 1F 99 AE B9 
   1874     12221.797 DT 00C83C44 Rx 1  00 
   1875     12233.751 DT 00283C44 Rx 1  00 
   1876     12233.929 DT 002800AA Rx 2  F9 01 
   1877     12234.103 DT 00283C45 Rx 2  01 00 
   1878     12240.234 DT 00788244 Rx 2  00 00 
   1879     12241.206 DT 00788245 Rx 1  00 
   1880     12242.285 DT 00788246 Rx 5  99 1F 99 AE B9 
   1881     12250.999 DT 008200AA Rx 3  AA 02 00 
   1882     12271.873 DT 00C800AA Rx 2  54 01 
   1883     12272.029 DT 00C83C44 Rx 1  00 
   1884     12283.768 DT 00283C44 Rx 1  00 
   1885     12289.265 DT 007800AA Rx 2  F7 01 
   1886     12290.278 DT 00788244 Rx 2  00 00 
   1887     12291.251 DT 00788245 Rx 1  00 
   1888     12292.323 DT 00788246 Rx 5  99 1F 99 AE B9 
   1889     12321.912 DT 00C83C44 Rx 1  00 
   1890     12333.788 DT 00283C44 Rx 1  00 
   1891     12333.966 DT 002800AA Rx 2  FA 01 
   1892     12334.140 DT 00283C45 Rx 2  01 00 
   1893     12340.319 DT 00788244 Rx 2  00 00 
   1894     12341.287 DT 00788245 Rx 1  00 
   1895     12342.357 DT 00788246 Rx 5  99 1F 99 AE B9 
   1896     12350.978 DT 008200AA Rx 3  AB 02 00 
   1897     12371.978 DT 00C800AA Rx 2  55 01 
   1898     12372.134 DT 00C83C44 Rx 1  00 
   1899     12383.815 DT 00283C44 Rx 1  00 
   1900     12389.342 DT 007800AA Rx 2  F8 01 
   1901     12390.348 DT 00788244 Rx 2  00 00 
   1902     12391.321 DT 00788245 Rx 1  00 
   1903     12392.383 DT 00788246 Rx 5  99 1F 99 AE B9 
   1904     12421.993 DT 00C83C44 Rx 1  00 
   1905     12433.830 DT 00283C44 Rx 1  00 
   1906     12434.008 DT 002800AA Rx 2  FB 01 
   1907     12434.183 DT 00283C45 Rx 2  01 00 
   1908     12440.384 DT 00788244 Rx 2  00 00 
   1909     12441.360 DT 00788245 Rx 1  00 
   1910     12442.422 DT 00788246 Rx 5  99 1F 99 AE B9 
   1911     12450.960 DT 008200AA Rx 3  AC 02 00 
   1912     12472.083 DT 00C800AA Rx 2  56 01 
   1913     12472.239 DT 00C83C44 Rx 1  00 
   1914     12483.851 DT 00283C44 Rx 1  00 
   1915     12489.421 DT 007800AA Rx 2  F9 01 
   1916     12490.425 DT 00788244 Rx 2  00 00 
   1917     12491.398 DT 00788245 Rx 1  00 
   1918     12492.462 DT 00788246 Rx 5  99 1F 99 AE B9 
   1919     12522.126 DT 00C83C44 Rx 1  00 
   1920     12533.869 DT 00283C44 Rx 1  00 
   1921     12534.051 DT 002800AA Rx 2  FC 01 
   1922     12534.225 DT 00283C45 Rx 2  01 00 
   1923     12540.464 DT 00788244 Rx 2  00 00 
   1924     12541.439 DT 00788245 Rx 1  00 
   1925     12542.505 DT 00788246 Rx 5  99 1F 99 AE B9 
   1926     12550.949 DT 008200AA Rx 3  AD 02 00 
   1927     12572.209 DT 00C800AA Rx 2  57 01 
   1928     12572.459 DT 00C83C44 Rx 1  00 
   1929     12583.890 DT 00283C44 Rx 1  00 
   1930     12589.491 DT 007800AA Rx 2  FA 01 
   1931     12590.489 DT 00788244 Rx 2  00 00 
   1932     12591.474 DT 00788245 Rx 1  00 
   1933     12592.534 DT 00788246 Rx 5  99 1F 99 AE B9 
   1934     12622.250 DT 00C83C44 Rx 1  00 
   1935     12633.893 DT 00283C44 Rx 1  00 
   1936     12634.071 DT 002800AA Rx 2  FD 01 
   1937     12634.245 DT 00283C45 Rx 2  01 00 
   1938     12634.473 DT 00283C46 Rx 5  64 1D 00 00 08 
   1939     12640.535 DT 00788244 Rx 2  00 00 
   1940     12641.505 DT 00788245 Rx 1  00 
   1941     12642.573 DT 00788246 Rx 5  99 1F 99 AE B9 
   1942     12650.925 DT 008200AA Rx 3  AE 02 00 
   1943     12672.325 DT 00C800AA Rx 2  58 01 
   1944     12672.482 DT 00C83C44 Rx 1  00 
   1945     12683.910 DT 00283C44 Rx 1  00 
   1946     12690.559 DT 007800AA Rx 2  FB 01 
   1947     12691.562 DT 00788244 Rx 2  00 00 
   1948     12692.536 DT 00788245 Rx 1  00 
   1949     12693.608 DT 00788246 Rx 5  99 1F 99 AE B9 
   1950     12722.366 DT 00C83C44 Rx 1  00 
   1951     12733.933 DT 00283C44 Rx 1  00 
   1952     12734.111 DT 002800AA Rx 2  FE 01 
   1953     12734.285 DT 00283C45 Rx 2  01 00 
   1954     12741.609 DT 00788244 Rx 2  00 00 
   1955     12742.579 DT 00788245 Rx 1  00 
   1956     12743.639 DT 00788246 Rx 5  99 1F 99 AE B9 
   1957     12750.906 DT 008200AA Rx 3  AF 02 00 
   1958     12772.444 DT 00C800AA Rx 2  59 01 
   1959     12772.600 DT 00C83C44 Rx 1  00 
   1960     12783.954 DT 00283C44 Rx 1  00 
   1961     12790.622 DT 007800AA Rx 2  FC 01 
   1962     12791.627 DT 00788244 Rx 2  00 00 
   1963     12792.607 DT 00788245 Rx 1  00 
   1964     12793.677 DT 00788246 Rx 5  99 1F 99 AE B9 
   1965     12822.493 DT 00C83C44 Rx 1  00 
   1966     12833.974 DT 00283C44 Rx 1  00 
   1967     12834.154 DT 002800AA Rx 2  FF 01 
   1968     12834.414 DT 00283C45 Rx 2  01 00 
   1969     12841.676 DT 00788244 Rx 2  00 00 
   1970     12842.648 DT 00788245 Rx 1  00 
   1971     12843.716 DT 00788246 Rx 5  99 1F 99 AE B9 
   1972     12850.898 DT 008200AA Rx 3  B0 02 00 
   1973     12872.570 DT 00C800AA Rx 2  5A 01 
   1974     12872.727 DT 00C83C44 Rx 1  00 
   1975     12883.989 DT 00283C44 Rx 1  00 
   1976     12890.704 DT 007800AA Rx 2  FD 01 
   1977     12891.733 DT 00788244 Rx 2  00 00 
   1978     12892.687 DT 00788245 Rx 1  00 
   1979     12893.757 DT 00788246 Rx 5  99 1F 99 AE B9 
   1980     12922.613 DT 00C83C44 Rx 1  00 
   1981     12934.006 DT 00283C44 Rx 1  00 
   1982     12934.188 DT 002800AA Rx 2  00 01 
   1983     12934.362 DT 00283C45 Rx 2  01 00 
   1984     12941.752 DT 00788244 Rx 2  00 00 
   1985     12942.728 DT 00788245 Rx 1  00 
   1986     12943.786 DT 00788246 Rx 5  99 1F 99 AE B9 
   1987     12950.874 DT 008200AA Rx 3  B1 02 00 
   1988     12972.687 DT 00C800AA Rx 2  5B 01 
   1989     12972.843 DT 00C83C44 Rx 1  00 
   1990     12984.029 DT 00283C44 Rx 1  00 
   1991     12990.783 DT 007800AA Rx 2  FE 01 
   1992     12991.778 DT 00788244 Rx 2  00 00 
   1993     12992.760 DT 00788245 Rx 1  00 
   1994     12993.816 DT 00788246 Rx 5  99 1F 99 AE B9 
   1995     13022.789 DT 00C83C44 Rx 1  00 
   1996     13034.041 DT 00283C44 Rx 1  00 
   1997     13034.221 DT 002800AA Rx 2  01 01 
   1998     13034.395 DT 00283C45 Rx 2  01 00 
   1999     13041.809 DT 00788244 Rx 2  00 00 
   2000     13042.783 DT 00788245 Rx 1  00 
   2001     13043.841 DT 00788246 Rx 5  99 1F 99 AE B9 
   2002     13050.841 DT 008200AA Rx 3  B2 02 00 
   2003     13072.778 DT 00C800AA Rx 2  5C 01 
   2004     13072.934 DT 00C83C44 Rx 1  00 
   2005     13084.052 DT 00283C44 Rx 1  00 
   2006     13090.836 DT 007800AA Rx 2  FF 01 
   2007     13091.837 DT 00788244 Rx 2  00 00 
   2008     13092.817 DT 00788245 Rx 1  00 
   2009     13093.887 DT 00788246 Rx 5  99 1F 99 AE B9 
   2010     13122.796 DT 00C83C44 Rx 1  00 
   2011     13134.064 DT 00283C44 Rx 1  00 
   2012     13134.242 DT 002800AA Rx 2  02 01 
   2013     13134.416 DT 00283C45 Rx 2  01 00 
   2014     13134.644 DT 00283C46 Rx 5  64 1D 00 00 08 
   2015     13141.888 DT 00788244 Rx 2  00 00 
   2016     13142.862 DT 00788245 Rx 1  00 
   2017     13143.920 DT 00788246 Rx 5  99 1F 99 AE B9 
   2018     13150.826 DT 008200AA Rx 3  B3 02 00 
   2019     13172.858 DT 00C800AA Rx 2  5D 01 
   2020     13173.015 DT 00C83C44 Rx 1  00 
   2021     13184.075 DT 00283C44 Rx 1  00 
   2022     13190.914 DT 007800AA Rx 2  00 01 
   2023     13191.914 DT 00788244 Rx 2  00 00 
   2024     13192.890 DT 00788245 Rx 1  00 
   2025     13193.952 DT 00788246 Rx 5  99 1F 99 AE B9 
   2026     13222.883 DT 00C83C44 Rx 1  00 
   2027     13234.096 DT 00283C44 Rx 1  00 
   2028     13234.276 DT 002800AA Rx 2  03 01 
   2029     13234.450 DT 00283C45 Rx 2  01 00 
   2030     13241.940 DT 00788244 Rx 2  00 00 
   2031     13242.916 DT 00788245 Rx 1  00 
   2032     13243.982 DT 00788246 Rx 5  99 1F 99 AE B9 
   2033     13251.310 DT 008200AA Rx 3  B4 02 00 
   2034     13272.947 DT 00C800AA Rx 2  5E 01 
   2035     13273.103 DT 00C83C44 Rx 1  00 
   2036     13284.127 DT 00283C44 Rx 1  00 
   2037     13290.977 DT 007800AA Rx 2  01 01 
   2038     13291.980 DT 00788244 Rx 2  00 00 
   2039     13293.046 DT 00788245 Rx 1  00 
   2040     13294.020 DT 00788246 Rx 5  99 1F 99 AE B9 
   2041     13322.971 DT 00C83C44 Rx 1  00 
   2042     13334.141 DT 00283C44 Rx 1  00 
   2043     13334.319 DT 002800AA Rx 2  04 01 
   2044     13334.493 DT 00283C45 Rx 2  01 00 
   2045     13342.030 DT 00788244 Rx 2  00 00 
   2046     13343.000 DT 00788245 Rx 1  00 
   2047     13344.065 DT 00788246 Rx 5  99 1F 99 AE B9 
   2048     13351.291 DT 008200AA Rx 3  B5 02 00 
   2049     13373.043 DT 00C800AA Rx 2  5F 01 
   2050     13373.199 DT 00C83C44 Rx 1  00 
   2051     13384.160 DT 00283C44 Rx 1  00 
   2052     13391.065 DT 007800AA Rx 2  02 01 
   2053     13392.068 DT 00788244 Rx 2  00 00 
   2054     13393.044 DT 00788245 Rx 1  00 
   2055     13394.118 DT 00788246 Rx 5  99 1F 99 AE B9 
   2056     13423.068 DT 00C83C44 Rx 1  00 
   2057     13434.183 DT 00283C44 Rx 1  00 
   2058     13434.740 DT 00283C45 Rx 2  01 00 
   2059     13442.113 DT 00788244 Rx 2  00 00 
   2060     13443.089 DT 00788245 Rx 1  00 
   2061     13444.155 DT 00788246 Rx 5  99 1F 99 AE B9 
   2062     13451.279 DT 008200AA Rx 3  B6 02 00 
   2063     13473.136 DT 00C800AA Rx 2  60 01 
   2064     13473.464 DT 00C83C44 Rx 1  00 
   2065     13484.202 DT 00283C44 Rx 1  00 
   2066     13491.144 DT 007800AA Rx 2  03 01 
   2067     13492.151 DT 00788244 Rx 2  00 00 
   2068     13493.127 DT 00788245 Rx 1  00 
   2069     13494.197 DT 00788246 Rx 5  99 1F 99 AE B9 
   2070     13523.157 DT 00C83C44 Rx 1  00 
   2071     13534.230 DT 00283C44 Rx 1  00 
   2072     13534.410 DT 002800AA Rx 2  06 01 
   2073     13534.658 DT 00283C45 Rx 2  01 00 
   2074     13542.192 DT 00788244 Rx 2  00 00 
   2075     13543.160 DT 00788245 Rx 1  00 
   2076     13544.220 DT 00788246 Rx 5  99 1F 99 AE B9 
   2077     13551.258 DT 008200AA Rx 3  B7 02 00 
   2078     13573.225 DT 00C800AA Rx 2  61 01 
   2079     13573.381 DT 00C83C44 Rx 1  00 
   2080     13584.247 DT 00283C44 Rx 1  00 
   2081     13591.223 DT 007800AA Rx 2  04 01 
   2082     13592.220 DT 00788244 Rx 2  00 00 
   2083     13593.200 DT 00788245 Rx 1  00 
   2084     13594.266 DT 00788246 Rx 5  99 1F 99 AE B9 
   2085     13623.257 DT 00C83C44 Rx 1  00 
   2086     13634.265 DT 00283C44 Rx 1  00 
   2087     13634.443 DT 002800AA Rx 2  07 01 
   2088     13634.617 DT 00283C45 Rx 2  01 00 
   2089     13634.845 DT 00283C46 Rx 5  64 15 00 00 08 
   2090     13642.267 DT 00788244 Rx 2  00 00 
   2091     13643.233 DT 00788245 Rx 1  00 
   2092     13644.299 DT 00788246 Rx 5  99 1F 99 AE B9 
   2093     13651.239 DT 008200AA Rx 3  B8 02 00 
   2094     13673.323 DT 00C800AA Rx 2  62 01 
   2095     13673.480 DT 00C83C44 Rx 1  00 
   2096     13684.294 DT 00283C44 Rx 1  00 
   2097     13692.293 DT 007800AA Rx 2  05 01 
   2098     13693.296 DT 00788244 Rx 2  00 00 
   2099     13694.272 DT 00788245 Rx 1  00 
   2100     13695.346 DT 00788246 Rx 5  99 1F 99 AE B9 
